
SetupTitle, ExfoliatedMoS2_TGIdVg_DiffBG
PrimitiveTest, I/V Sweep
TestParameter, Context.MainFrame, B1500A
TestParameter, Channel.UnitType, SMU, SMU, SMU, SMU
TestParameter, Channel.Unit, SMU1:HR, SMU2:HR, SMU4:HR, SMU3:HR
TestParameter, Channel.IName, ID, IS, ITG, Ibg
TestParameter, Channel.VName, VD, VS, VTG, Vbg
TestParameter, Channel.Mode, V, COMMON, V, V
TestParameter, Channel.Func, CONST, CONST, VAR1, VAR2
TestParameter, Channel.Index, 
TestParameter, Channel.Time, 
TestParameter, Measurement.Port.Unit, SMU1:HR, SMU2:HR, SMU4:HR, SMU3:HR
TestParameter, Measurement.Port.SeriesResistor, NONE, NONE, NONE, NONE
TestParameter, Measurement.Port.Filter, ON, ON, ON, ON
TestParameter, Measurement.Port.OutputVoltageComparison, 0, 0, 0, 0
TestParameter, Measurement.Primary.Locus, Double
TestParameter, Measurement.Primary.Scale, LINEAR
TestParameter, Measurement.Primary.Start, -2
TestParameter, Measurement.Primary.Stop, 1
TestParameter, Measurement.Primary.Step, 0.015000000000000001
TestParameter, Measurement.Primary.Compliance, 0.005
TestParameter, Measurement.Primary.PowerCompliance, 0
TestParameter, Measurement.Aborting.Condition, CONTINUE AT ANY
TestParameter, Measurement.PostOutput.Value, START
TestParameter, Measurement.PostOutput.Retention, OFF
TestParameter, Measurement.Secondary.Start, 1
TestParameter, Measurement.Secondary.Count, 5
TestParameter, Measurement.Secondary.Step, 0.25
TestParameter, Measurement.Secondary.Compliance, 0.005
TestParameter, Measurement.Secondary.PowerCompliance, 0
TestParameter, Measurement.Bias.Source, 0.1, 0, -2, 1
TestParameter, Measurement.Bias.Compliance, 0.005, 0.1, 0.005, 0.005
TestParameter, Measurement.Monitor.Unit, SMU1:HR, SMU2:HR, SMU4:HR, SMU3:HR
TestParameter, Measurement.Monitor.Adc, HR ADC, HR ADC, HR ADC, HR ADC
TestParameter, Measurement.Monitor.Measurement, Compliance Side, Compliance Side, Compliance Side, Compliance Side
TestParameter, Measurement.Monitor.RangingMode, LIMITED, LIMITED, LIMITED, LIMITED
TestParameter, Measurement.Monitor.RangeBoundary, 1nA, 1nA, 1nA, 1nA
TestParameter, Measurement.Monitor.RangeRating, BY FULL RANGE, BY FULL RANGE, BY FULL RANGE, BY FULL RANGE
TestParameter, Measurement.Monitor.RangeRatingCoeff, 50, 50, 50, 50
TestParameter, Measurement.Timing.Hold, 0
TestParameter, Measurement.Timing.Delay, 0
TestParameter, Measurement.Adc.HighSpeed.Mode, AUTO
TestParameter, Measurement.Adc.HighSpeed.Coeff, 1
TestParameter, Measurement.Adc.HighResolution.AutoZero, OFF
TestParameter, Measurement.Adc.HighResolution.Mode, AUTO
TestParameter, Measurement.Adc.HighResolution.Coeff, 6
TestParameter, Measurement.WaitTime.Source.Coeff, 1
TestParameter, Measurement.WaitTime.Source.Offset, 0
TestParameter, Measurement.WaitTime.Monitor.Coeff, 1
TestParameter, Measurement.WaitTime.Monitor.Offset, 0
TestParameter, Output.Graph.Enabled, true
TestParameter, Output.Graph.AutoScaling, false
TestParameter, Output.Graph.XAxis.Data, VTG
TestParameter, Output.Graph.XAxis.Scale, Linear
TestParameter, Output.Graph.XAxis.Left, -1
TestParameter, Output.Graph.XAxis.Right, 1
TestParameter, Output.Graph.XAxis.RunTimeAutoScale, false
TestParameter, Output.Graph.YAxis.Data, ID, ITG
TestParameter, Output.Graph.YAxis.Scale, Linear, Linear
TestParameter, Output.Graph.YAxis.Bottom, -0.1, -0.001
TestParameter, Output.Graph.YAxis.Top, 0.1, 0.001
TestParameter, Output.Graph.YAxis.Group, , 
TestParameter, Output.Graph.YAxis.RunTimeAutoScale, true, false
TestParameter, Output.List.Data, VTG, ID, VD, Vbg, Ibg, ITG, IS
TestParameter, AutoAnalysis.Interpolation, false
TestParameter, AutoAnalysis.Line1.Enabled, false
TestParameter, AutoAnalysis.Line1.Type, 1
TestParameter, AutoAnalysis.Line1.Fix, True
TestParameter, AutoAnalysis.Line1.YAxis, 0
TestParameter, AutoAnalysis.Line1.Point1.Type, 0
TestParameter, AutoAnalysis.Line1.Point1.XY.X, 
TestParameter, AutoAnalysis.Line1.Point1.XY.Y, 
TestParameter, AutoAnalysis.Line1.Point1.Data.Var, 
TestParameter, AutoAnalysis.Line1.Point1.Data.Condition, 
TestParameter, AutoAnalysis.Line1.Point1.Data.Start, false
TestParameter, AutoAnalysis.Line1.Point1.Data.StartVar, 
TestParameter, AutoAnalysis.Line1.Point1.Data.StartCondition, 
TestParameter, AutoAnalysis.Line1.Point2.Type, 0
TestParameter, AutoAnalysis.Line1.Point2.XY.X, 
TestParameter, AutoAnalysis.Line1.Point2.XY.Y, 
TestParameter, AutoAnalysis.Line1.Point2.Data.Var, 
TestParameter, AutoAnalysis.Line1.Point2.Data.Condition, 
TestParameter, AutoAnalysis.Line1.Point2.Data.Start, false
TestParameter, AutoAnalysis.Line1.Point2.Data.StartVar, 
TestParameter, AutoAnalysis.Line1.Point2.Data.StartCondition, 
TestParameter, AutoAnalysis.Line1.GradientExpr, 0
TestParameter, AutoAnalysis.Line2.Enabled, false
TestParameter, AutoAnalysis.Line2.Type, 1
TestParameter, AutoAnalysis.Line2.Fix, True
TestParameter, AutoAnalysis.Line2.YAxis, 0
TestParameter, AutoAnalysis.Line2.Point1.Type, 0
TestParameter, AutoAnalysis.Line2.Point1.XY.X, 
TestParameter, AutoAnalysis.Line2.Point1.XY.Y, 
TestParameter, AutoAnalysis.Line2.Point1.Data.Var, 
TestParameter, AutoAnalysis.Line2.Point1.Data.Condition, 
TestParameter, AutoAnalysis.Line2.Point1.Data.Start, false
TestParameter, AutoAnalysis.Line2.Point1.Data.StartVar, 
TestParameter, AutoAnalysis.Line2.Point1.Data.StartCondition, 
TestParameter, AutoAnalysis.Line2.Point2.Type, 0
TestParameter, AutoAnalysis.Line2.Point2.XY.X, 
TestParameter, AutoAnalysis.Line2.Point2.XY.Y, 
TestParameter, AutoAnalysis.Line2.Point2.Data.Var, 
TestParameter, AutoAnalysis.Line2.Point2.Data.Condition, 
TestParameter, AutoAnalysis.Line2.Point2.Data.Start, false
TestParameter, AutoAnalysis.Line2.Point2.Data.StartVar, 
TestParameter, AutoAnalysis.Line2.Point2.Data.StartCondition, 
TestParameter, AutoAnalysis.Line2.GradientExpr, 0
TestParameter, AutoAnalysis.Marker.Enabled, false
TestParameter, AutoAnalysis.Marker.Data.Var, 
TestParameter, AutoAnalysis.Marker.Data.Condition, 
TestParameter, AutoAnalysis.Marker.Data.Start, false
TestParameter, AutoAnalysis.Marker.Data.StartVar, 
TestParameter, AutoAnalysis.Marker.Data.StartCondition, 
MetaData, TestRecord.EntryPoint, true
MetaData, TestRecord.RecordTime, 09/24/2025 15:53:21
MetaData, TestRecord.TestTarget, E31-M2
MetaData, TestRecord.IterationIndex, 1
MetaData, TestRecord.Preservation, true
MetaData, TestRecord.Flag, 
MetaData, TestRecord.Remarks, 
MetaData, TestRecord.LinkKey, a34109b1-3070-4d76-8bc9-0b05af44aad9
Dimension1, 402, 402, 402, 402, 402, 402, 402
Dimension2, 5, 5, 5, 5, 5, 5, 5
DataName, VTG, Vbg, VD, ID, IS, ITG, Ibg
DataValue, -2, 1, 0.1, 1.3500000000000001E-12, 2.2500000000000003E-12, -4.4400000000000005E-12, 1.85E-12
DataValue, -1.985, 1, 0.1, 2.8600000000000003E-12, 3.35E-12, -6.9900000000000007E-12, 5.9E-13
DataValue, -1.9700000000000002, 1, 0.1, 8.8000000000000009E-13, 2.28E-12, -4.67E-12, 1.5700000000000002E-12
DataValue, -1.955, 1, 0.1, 1.12E-12, 4.2900000000000005E-12, -4.58E-12, 1.02E-12
DataValue, -1.9400000000000002, 1, 0.1, 1.6200000000000002E-12, 1.9400000000000002E-12, -4.4000000000000006E-12, 6.0000000000000007E-13
DataValue, -1.925, 1, 0.1, 7E-13, 2.2200000000000002E-12, -2.8800000000000002E-12, 7.4000000000000008E-13
DataValue, -1.9100000000000001, 1, 0.1, 2.8300000000000003E-12, 2.87E-12, -5.6E-12, 9.5E-13
DataValue, -1.895, 1, 0.1, 8.300000000000001E-13, 1.6600000000000002E-12, -3.91E-12, 1.9900000000000002E-12
DataValue, -1.8800000000000001, 1, 0.1, 1.03E-12, 3.7300000000000005E-12, -4.48E-12, -3.5E-13
DataValue, -1.865, 1, 0.1, 1.55E-12, 1.7100000000000002E-12, -4.21E-12, 7E-13
DataValue, -1.85, 1, 0.1, 1.8000000000000002E-13, 1.9900000000000002E-12, -1.95E-12, 7.4000000000000008E-13
DataValue, -1.8350000000000002, 1, 0.1, 2.28E-12, 2.6500000000000002E-12, -4.4500000000000006E-12, 2.5E-13
DataValue, -1.82, 1, 0.1, 7.7000000000000005E-13, 9.9E-13, -3.4400000000000003E-12, 1.45E-12
DataValue, -1.8050000000000002, 1, 0.1, 9.9E-13, 3.58E-12, -3.3200000000000004E-12, 3.4E-13
DataValue, -1.79, 1, 0.1, 1.4300000000000002E-12, 2.06E-12, -3.75E-12, 7.9000000000000007E-13
DataValue, -1.7750000000000001, 1, 0.1, -2.8E-13, 1.8100000000000002E-12, -1.8900000000000002E-12, 1.4E-13
DataValue, -1.76, 1, 0.1, 2.0500000000000004E-12, 2.26E-12, -3.3700000000000004E-12, -4E-13
DataValue, -1.745, 1, 0.1, 1.04E-12, 7.7000000000000005E-13, -2.39E-12, 1.5600000000000002E-12
DataValue, -1.73, 1, 0.1, 2.8E-13, 2.8800000000000002E-12, -2.03E-12, 7.100000000000001E-13
DataValue, -1.715, 1, 0.1, 1.4700000000000002E-12, 2.08E-12, -3.3E-12, 1.3E-13
DataValue, -1.7000000000000002, 1, 0.1, -5.6E-13, 1.3900000000000001E-12, -9.8E-13, 4.1E-13
DataValue, -1.685, 1, 0.1, 1.12E-12, 2.28E-12, -2.7800000000000003E-12, -1.04E-12
DataValue, -1.6700000000000002, 1, 0.1, 8.7E-13, -1.9000000000000002E-13, -2.24E-12, 7.100000000000001E-13
DataValue, -1.655, 1, 0.1, 5.6E-13, 2.31E-12, -1.8100000000000002E-12, 1.0600000000000001E-12
DataValue, -1.6400000000000001, 1, 0.1, 1.2900000000000002E-12, 1.95E-12, -3.28E-12, 6.5000000000000006E-13
DataValue, -1.625, 1, 0.1, -9.2000000000000012E-13, 1.3800000000000002E-12, -5.5000000000000008E-13, 1E-13
DataValue, -1.61, 1, 0.1, 1.21E-12, 2.3000000000000003E-12, -2.26E-12, -3.7000000000000004E-13
DataValue, -1.595, 1, 0.1, 8.7E-13, -2.0000000000000003E-14, -2.42E-12, 2.2000000000000003E-12
DataValue, -1.58, 1, 0.1, -2.0000000000000003E-14, 1.6700000000000002E-12, -1.3800000000000002E-12, 1.2400000000000002E-12
DataValue, -1.5650000000000002, 1, 0.1, 1.8400000000000002E-12, 1.51E-12, -3.1900000000000003E-12, -2.9000000000000003E-13
DataValue, -1.55, 1, 0.1, -1.1000000000000002E-12, 1.18E-12, -6.400000000000001E-13, 8.300000000000001E-13
DataValue, -1.5350000000000001, 1, 0.1, 5.6E-13, 2.3200000000000002E-12, -1.2500000000000001E-12, -5.6E-13
DataValue, -1.52, 1, 0.1, 6.3E-13, -1.4E-13, -1.5200000000000002E-12, 1.6E-12
DataValue, -1.5050000000000001, 1, 0.1, -2.0000000000000003E-14, 1.3500000000000001E-12, -1.5800000000000001E-12, 5.1E-13
DataValue, -1.49, 1, 0.1, 2.03E-12, 1.3500000000000001E-12, -3.7900000000000006E-12, 2.7E-13
DataValue, -1.475, 1, 0.1, -1.36E-12, 6.5000000000000006E-13, -3.5E-13, -2.8E-13
DataValue, -1.46, 1, 0.1, 5E-13, 2.24E-12, -8.8000000000000009E-13, -5.6E-13
DataValue, -1.445, 1, 0.1, 7.4000000000000008E-13, -2.4000000000000004E-13, -1.22E-12, 1.1000000000000002E-12
DataValue, -1.4300000000000002, 1, 0.1, 6.0000000000000009E-14, 8.6000000000000007E-13, -2.2000000000000002E-13, -3.3E-13
DataValue, -1.415, 1, 0.1, 2.13E-12, 8.4000000000000006E-13, -2.54E-12, -8.5000000000000011E-13
DataValue, -1.4000000000000001, 1, 0.1, -1.9000000000000002E-13, 3.0000000000000005E-14, -8.4000000000000006E-13, 6.1E-13
DataValue, -1.385, 1, 0.1, -5E-14, 2.29E-12, -1.1500000000000002E-12, -8.4000000000000006E-13
DataValue, -1.37, 1, 0.1, 6.6E-13, 1.0000000000000002E-14, -8.4000000000000006E-13, 6.6E-13
DataValue, -1.355, 1, 0.1, -4E-13, 1.6000000000000003E-13, 5.6E-13, 2.3000000000000003E-13
DataValue, -1.34, 1, 0.1, 1.8200000000000003E-12, 8.7E-13, -2.79E-12, -1E-13
DataValue, -1.325, 1, 0.1, 1.0000000000000002E-14, -4.2000000000000003E-13, -8.6000000000000007E-13, 1.2000000000000001E-12
DataValue, -1.31, 1, 0.1, 5E-14, 2.09E-12, -8.5000000000000011E-13, -7.100000000000001E-13
DataValue, -1.2950000000000002, 1, 0.1, 1.0600000000000001E-12, 3.0000000000000003E-13, -1.3300000000000002E-12, 1.2000000000000002E-13
DataValue, -1.28, 1, 0.1, -4.7E-13, 2.4000000000000004E-13, 8.5000000000000011E-13, 1.7E-13
DataValue, -1.2650000000000001, 1, 0.1, 1.69E-12, 5.4E-13, -1.31E-12, -6.0000000000000007E-13
DataValue, -1.25, 1, 0.1, 4.1E-13, -8.7E-13, -4.7E-13, 1.3500000000000001E-12
DataValue, -1.235, 1, 0.1, 2.1000000000000001E-13, 1.6E-12, -1E-12, -1.2000000000000002E-13
DataValue, -1.22, 1, 0.1, 1.22E-12, -1E-13, -1.5700000000000002E-12, 3.5E-13
DataValue, -1.205, 1, 0.1, -6.9000000000000009E-13, -2.9000000000000003E-13, 1.03E-12, -4.0000000000000006E-14
DataValue, -1.19, 1, 0.1, 2.0700000000000003E-12, 4E-13, -1.5E-12, -6.8E-13
DataValue, -1.175, 1, 0.1, 1.26E-12, -1.32E-12, -2.6E-13, 1.6600000000000002E-12
DataValue, -1.1600000000000001, 1, 0.1, 5.4E-13, 9.6000000000000015E-13, -1.8000000000000002E-13, 4E-13
DataValue, -1.145, 1, 0.1, 1.6200000000000002E-12, -8.0000000000000013E-14, -1.4700000000000002E-12, -2.6E-13
DataValue, -1.1300000000000001, 1, 0.1, -5.2E-13, -7.4000000000000008E-13, 5.9E-13, 5E-14
DataValue, -1.115, 1, 0.1, 1.9E-12, 5E-14, -7.6000000000000009E-13, -1.5E-12
DataValue, -1.1, 1, 0.1, 1.31E-12, -2.13E-12, -2.6E-13, 1.3400000000000002E-12
DataValue, -1.085, 1, 0.1, 1.14E-12, -1.7E-13, -2.2000000000000002E-13, 2.6E-13
DataValue, -1.07, 1, 0.1, 2.3200000000000002E-12, -6.6E-13, -1.74E-12, 5.1E-13
DataValue, -1.0550000000000002, 1, 0.1, 0, -1.31E-12, 1.13E-12, -8.0000000000000013E-14
DataValue, -1.04, 1, 0.1, 2.5300000000000003E-12, -4.5000000000000005E-13, -9.7000000000000011E-13, -6.9000000000000009E-13
DataValue, -1.0250000000000001, 1, 0.1, 2.29E-12, -3.3200000000000004E-12, -6.0000000000000007E-13, 1.03E-12
DataValue, -1.01, 1, 0.1, 1.8400000000000002E-12, -1.46E-12, -1E-13, 8.1000000000000008E-13
DataValue, -0.995, 1, 0.1, 3.53E-12, -1.9700000000000003E-12, -1.74E-12, -4.0000000000000006E-14
DataValue, -0.98000000000000009, 1, 0.1, 1.7500000000000002E-12, -3.02E-12, 1.1100000000000001E-12, 5.2E-13
DataValue, -0.96500000000000008, 1, 0.1, 3.3700000000000004E-12, -1.9200000000000003E-12, -2.2000000000000002E-13, -1.1500000000000002E-12
DataValue, -0.95000000000000007, 1, 0.1, 3.71E-12, -4.6100000000000008E-12, 7E-14, 1.6700000000000002E-12
DataValue, -0.935, 1, 0.1, 3.25E-12, -3.7800000000000005E-12, -1.3E-13, 7.3E-13
DataValue, -0.92, 1, 0.1, 5.6200000000000007E-12, -3.6900000000000006E-12, -2.26E-12, -1.08E-12
DataValue, -0.905, 1, 0.1, 3.8E-12, -5.2200000000000008E-12, 7.6000000000000009E-13, 3.5E-13
DataValue, -0.89, 1, 0.1, 5.53E-12, -4.41E-12, -5E-14, -1.07E-12
DataValue, -0.875, 1, 0.1, 7.07E-12, -7.35E-12, -2.3000000000000003E-13, 1.13E-12
DataValue, -0.86, 1, 0.1, 6.6300000000000006E-12, -7.4E-12, 6.2000000000000008E-13, -1E-13
DataValue, -0.84500000000000008, 1, 0.1, 9.66E-12, -7.92E-12, -1.9700000000000003E-12, -4.5000000000000005E-13
DataValue, -0.83000000000000007, 1, 0.1, 8.4700000000000009E-12, -9.54E-12, 8.0000000000000013E-14, 6.0000000000000007E-13
DataValue, -0.81500000000000006, 1, 0.1, 9.88E-12, -8.7100000000000015E-12, 2.1000000000000001E-13, -1.12E-12
DataValue, -0.8, 1, 0.1, 1.2060000000000002E-11, -1.241E-11, 1E-13, 3.4E-13
DataValue, -0.785, 1, 0.1, 1.2730000000000001E-11, -1.3460000000000001E-11, 1.4700000000000002E-12, 5.3000000000000006E-13
DataValue, -0.77, 1, 0.1, 1.6380000000000003E-11, -1.46E-11, -2.2500000000000003E-12, -3.6000000000000003E-13
DataValue, -0.755, 1, 0.1, 1.702E-11, -1.83E-11, 1.0000000000000002E-14, 8E-13
DataValue, -0.74, 1, 0.1, 1.93E-11, -1.7890000000000002E-11, -2.2000000000000002E-13, -3.1000000000000004E-13
DataValue, -0.72500000000000009, 1, 0.1, 2.2530000000000002E-11, -2.2080000000000003E-11, -3.6000000000000003E-13, 0
DataValue, -0.71000000000000008, 1, 0.1, 2.3720000000000003E-11, -2.4770000000000002E-11, 1.7000000000000002E-12, -4.4000000000000004E-13
DataValue, -0.69500000000000006, 1, 0.1, 3.0170000000000004E-11, -2.8160000000000003E-11, -8E-13, -1.14E-12
DataValue, -0.68, 1, 0.1, 3.1810000000000004E-11, -3.3160000000000005E-11, 2E-13, 2.09E-12
DataValue, -0.665, 1, 0.1, 3.6210000000000003E-11, -3.5020000000000005E-11, -1.5000000000000002E-13, -8.9E-13
DataValue, -0.65, 1, 0.1, 4.185E-11, -4.1140000000000006E-11, -1.1500000000000002E-12, -3.0000000000000005E-14
DataValue, -0.635, 1, 0.1, 4.5870000000000005E-11, -4.69E-11, 1.6100000000000002E-12, 1.7E-13
DataValue, -0.62, 1, 0.1, 5.4310000000000004E-11, -5.2630000000000003E-11, -6.400000000000001E-13, 3.3E-13
DataValue, -0.605, 1, 0.1, 6.019E-11, -6.051E-11, 2.8E-13, 8.7E-13
DataValue, -0.59000000000000008, 1, 0.1, 6.816E-11, -6.648E-11, 2E-13, 1.2000000000000002E-13
DataValue, -0.57500000000000007, 1, 0.1, 7.814E-11, -7.7180000000000012E-11, -1.0500000000000002E-12, 3.4E-13
DataValue, -0.56, 1, 0.1, 8.704E-11, -8.834E-11, 1.13E-12, 3.0000000000000005E-14
DataValue, -0.545, 1, 0.1, 9.9870000000000013E-11, -9.837E-11, -3.8000000000000005E-13, -1.6800000000000001E-12
DataValue, -0.53, 1, 0.1, 1.1263E-10, -1.1271E-10, 5.4E-13, 1.9700000000000003E-12
DataValue, -0.515, 1, 0.1, 1.2567000000000002E-10, -1.2485000000000001E-10, 1.9000000000000002E-13, 6.6E-13
DataValue, -0.5, 1, 0.1, 1.4405E-10, -1.4272E-10, -9.7000000000000011E-13, -3.6000000000000003E-13
DataValue, -0.48500000000000004, 1, 0.1, 1.6104000000000002E-10, -1.6279000000000001E-10, 1.59E-12, -2.5E-13
DataValue, -0.47000000000000003, 1, 0.1, 1.8482000000000001E-10, -1.8238000000000002E-10, -5.8000000000000005E-13, -6.400000000000001E-13
DataValue, -0.455, 1, 0.1, 2.0591000000000002E-10, -2.0649000000000003E-10, -1E-13, 5.8000000000000005E-13
DataValue, -0.44, 1, 0.1, 2.3208000000000001E-10, -2.305E-10, 7.3E-13, 3.5E-13
DataValue, -0.42500000000000004, 1, 0.1, 2.6583E-10, -2.6287000000000004E-10, -1.3800000000000002E-12, 3.5E-13
DataValue, -0.41000000000000003, 1, 0.1, 2.957E-10, -2.9692000000000005E-10, 8.8000000000000009E-13, 1E-13
DataValue, -0.395, 1, 0.1, 3.3315000000000003E-10, -3.3082E-10, -1.6000000000000003E-13, -1.91E-12
DataValue, -0.38, 1, 0.1, 3.7556000000000005E-10, -3.7595000000000003E-10, 2.3000000000000003E-13, 1.5300000000000001E-12
DataValue, -0.365, 1, 0.1, 4.2536E-10, -4.2164000000000006E-10, 4.4000000000000004E-13, 1.08E-12
DataValue, -0.35000000000000003, 1, 0.1, 4.7283E-10, -4.7032000000000009E-10, -1.7500000000000002E-12, -6.1E-13
DataValue, -0.335, 1, 0.1, 5.206E-10, -5.2097E-10, 1.0500000000000002E-12, -1.4E-13
DataValue, -0.32, 1, 0.1, 5.7937E-10, -5.801000000000001E-10, 6.0000000000000009E-14, -1.1000000000000002E-12
DataValue, -0.305, 1, 0.1, 6.4126E-10, -6.3893000000000009E-10, -4.0000000000000006E-14, 9.5E-13
DataValue, -0.29000000000000004, 1, 0.1, 7.1858E-10, -7.1227000000000006E-10, 8.6000000000000007E-13, -6.400000000000001E-13
DataValue, -0.275, 1, 0.1, 7.9494E-10, -7.908600000000001E-10, -1.6800000000000001E-12, -1.2000000000000002E-13
DataValue, -0.26, 1, 0.1, 8.6955000000000006E-10, -8.6563E-10, 6.9000000000000009E-13, 1.07E-12
DataValue, -0.24500000000000002, 1, 0.1, 9.573E-10, -9.502E-10, 3.6000000000000003E-13, -6.400000000000001E-13
DataValue, -0.23, 1, 0.1, 1.04773E-09, -1.04756E-09, -4.0000000000000006E-14, -4.0000000000000006E-14
DataValue, -0.215, 1, 0.1, 1.1058E-09, -1.0855E-09, 1.27E-12, -3.6000000000000003E-13
DataValue, -0.2, 1, 0.1, 1.2139E-09, -1.2086E-09, -8.9E-13, -2.3000000000000003E-13
DataValue, -0.185, 1, 0.1, 1.3059E-09, -1.2957E-09, 5.5000000000000008E-13, 9.000000000000001E-13
DataValue, -0.17, 1, 0.1, 1.4127E-09, -1.4106999999999999E-09, 3.2000000000000005E-13, -1.5E-12
DataValue, -0.155, 1, 0.1, 1.5259E-09, -1.5236E-09, -3.0000000000000005E-14, 1.13E-12
DataValue, -0.14, 1, 0.1, 1.6306E-09, -1.6301E-09, -5E-14, 5.8000000000000005E-13
DataValue, -0.125, 1, 0.1, 1.743E-09, -1.7453E-09, -1.31E-12, -1.1000000000000001E-13
DataValue, -0.11, 1, 0.1, 1.8598E-09, -1.8629E-09, 1.91E-12, 6.7000000000000007E-13
DataValue, -0.095, 1, 0.1, 1.9982E-09, -1.986E-09, -7.8000000000000011E-13, -2.5E-13
DataValue, -0.08, 1, 0.1, 2.1016E-09, -2.0832E-09, 1.4E-13, -1.5000000000000002E-13
DataValue, -0.065, 1, 0.1, 2.2226E-09, -2.2178E-09, -2.5E-13, -1.2000000000000001E-12
DataValue, -0.05, 1, 0.1, 2.3073E-09, -2.3234E-09, -1.3E-13, 9.9E-13
DataValue, -0.035, 1, 0.1, 2.419E-09, -2.4099E-09, 3.6000000000000003E-13, 3.0000000000000005E-14
DataValue, -0.02, 1, 0.1, 2.5099E-09, -2.4935E-09, -9.2000000000000012E-13, 5.4E-13
DataValue, -0.005, 1, 0.1, 2.5993E-09, -2.5829E-09, 1.93E-12, 3.4E-13
