
SetupTitle, ExfoliatedMoS2_TGIdVg
PrimitiveTest, I/V Sweep
TestParameter, Context.MainFrame, B1500A
TestParameter, Channel.UnitType, SMU, SMU, SMU, SMU
TestParameter, Channel.Unit, SMU1:HR, SMU4:HR, SMU2:HR, SMU3:HR
TestParameter, Channel.IName, ID, IS, ITG, Ibg
TestParameter, Channel.VName, VD, VS, VTG, Vbg
TestParameter, Channel.Mode, V, COMMON, V, V
TestParameter, Channel.Func, VAR2, CONST, VAR1, CONST
TestParameter, Channel.Index, 
TestParameter, Channel.Time, 
TestParameter, Measurement.Port.Unit, SMU1:HR, SMU4:HR, SMU2:HR, SMU3:HR
TestParameter, Measurement.Port.SeriesResistor, NONE, NONE, NONE, NONE
TestParameter, Measurement.Port.Filter, ON, ON, ON, ON
TestParameter, Measurement.Port.OutputVoltageComparison, 0, 0, 0, 0
TestParameter, Measurement.Primary.Locus, Double
TestParameter, Measurement.Primary.Scale, LINEAR
TestParameter, Measurement.Primary.Start, -2
TestParameter, Measurement.Primary.Stop, 1
TestParameter, Measurement.Primary.Step, 0.015000000000000001
TestParameter, Measurement.Primary.Compliance, 0.005
TestParameter, Measurement.Primary.PowerCompliance, 0
TestParameter, Measurement.Aborting.Condition, CONTINUE AT ANY
TestParameter, Measurement.PostOutput.Value, START
TestParameter, Measurement.PostOutput.Retention, OFF
TestParameter, Measurement.Secondary.Start, 0.1
TestParameter, Measurement.Secondary.Count, 4
TestParameter, Measurement.Secondary.Step, 0.3
TestParameter, Measurement.Secondary.Compliance, 0.005
TestParameter, Measurement.Secondary.PowerCompliance, 0
TestParameter, Measurement.Bias.Source, 0.1, 0, -2, 1
TestParameter, Measurement.Bias.Compliance, 0.005, 0.1, 0.005, 0.1
TestParameter, Measurement.Monitor.Unit, SMU1:HR, SMU4:HR, SMU2:HR, SMU3:HR
TestParameter, Measurement.Monitor.Adc, HR ADC, HR ADC, HR ADC, HR ADC
TestParameter, Measurement.Monitor.Measurement, Compliance Side, Compliance Side, Compliance Side, Compliance Side
TestParameter, Measurement.Monitor.RangingMode, LIMITED, LIMITED, LIMITED, LIMITED
TestParameter, Measurement.Monitor.RangeBoundary, 1nA, 1nA, 1nA, 1nA
TestParameter, Measurement.Monitor.RangeRating, BY FULL RANGE, BY FULL RANGE, BY FULL RANGE, BY FULL RANGE
TestParameter, Measurement.Monitor.RangeRatingCoeff, 50, 50, 50, 50
TestParameter, Measurement.Timing.Hold, 0
TestParameter, Measurement.Timing.Delay, 0
TestParameter, Measurement.Adc.HighSpeed.Mode, AUTO
TestParameter, Measurement.Adc.HighSpeed.Coeff, 1
TestParameter, Measurement.Adc.HighResolution.AutoZero, OFF
TestParameter, Measurement.Adc.HighResolution.Mode, AUTO
TestParameter, Measurement.Adc.HighResolution.Coeff, 6
TestParameter, Measurement.WaitTime.Source.Coeff, 1
TestParameter, Measurement.WaitTime.Source.Offset, 0
TestParameter, Measurement.WaitTime.Monitor.Coeff, 1
TestParameter, Measurement.WaitTime.Monitor.Offset, 0
TestParameter, Output.Graph.Enabled, true
TestParameter, Output.Graph.AutoScaling, false
TestParameter, Output.Graph.XAxis.Data, VTG
TestParameter, Output.Graph.XAxis.Scale, Linear
TestParameter, Output.Graph.XAxis.Left, -1
TestParameter, Output.Graph.XAxis.Right, 1
TestParameter, Output.Graph.XAxis.RunTimeAutoScale, false
TestParameter, Output.Graph.YAxis.Data, ID, ITG
TestParameter, Output.Graph.YAxis.Scale, Linear, Linear
TestParameter, Output.Graph.YAxis.Bottom, -0.1, -0.001
TestParameter, Output.Graph.YAxis.Top, 0.1, 0.001
TestParameter, Output.Graph.YAxis.Group, , 
TestParameter, Output.Graph.YAxis.RunTimeAutoScale, true, false
TestParameter, Output.List.Data, VTG, ID, VD, Vbg, Ibg, ITG, IS
TestParameter, AutoAnalysis.Interpolation, false
TestParameter, AutoAnalysis.Line1.Enabled, false
TestParameter, AutoAnalysis.Line1.Type, 1
TestParameter, AutoAnalysis.Line1.Fix, True
TestParameter, AutoAnalysis.Line1.YAxis, 0
TestParameter, AutoAnalysis.Line1.Point1.Type, 0
TestParameter, AutoAnalysis.Line1.Point1.XY.X, 
TestParameter, AutoAnalysis.Line1.Point1.XY.Y, 
TestParameter, AutoAnalysis.Line1.Point1.Data.Var, 
TestParameter, AutoAnalysis.Line1.Point1.Data.Condition, 
TestParameter, AutoAnalysis.Line1.Point1.Data.Start, false
TestParameter, AutoAnalysis.Line1.Point1.Data.StartVar, 
TestParameter, AutoAnalysis.Line1.Point1.Data.StartCondition, 
TestParameter, AutoAnalysis.Line1.Point2.Type, 0
TestParameter, AutoAnalysis.Line1.Point2.XY.X, 
TestParameter, AutoAnalysis.Line1.Point2.XY.Y, 
TestParameter, AutoAnalysis.Line1.Point2.Data.Var, 
TestParameter, AutoAnalysis.Line1.Point2.Data.Condition, 
TestParameter, AutoAnalysis.Line1.Point2.Data.Start, false
TestParameter, AutoAnalysis.Line1.Point2.Data.StartVar, 
TestParameter, AutoAnalysis.Line1.Point2.Data.StartCondition, 
TestParameter, AutoAnalysis.Line1.GradientExpr, 0
TestParameter, AutoAnalysis.Line2.Enabled, false
TestParameter, AutoAnalysis.Line2.Type, 1
TestParameter, AutoAnalysis.Line2.Fix, True
TestParameter, AutoAnalysis.Line2.YAxis, 0
TestParameter, AutoAnalysis.Line2.Point1.Type, 0
TestParameter, AutoAnalysis.Line2.Point1.XY.X, 
TestParameter, AutoAnalysis.Line2.Point1.XY.Y, 
TestParameter, AutoAnalysis.Line2.Point1.Data.Var, 
TestParameter, AutoAnalysis.Line2.Point1.Data.Condition, 
TestParameter, AutoAnalysis.Line2.Point1.Data.Start, false
TestParameter, AutoAnalysis.Line2.Point1.Data.StartVar, 
TestParameter, AutoAnalysis.Line2.Point1.Data.StartCondition, 
TestParameter, AutoAnalysis.Line2.Point2.Type, 0
TestParameter, AutoAnalysis.Line2.Point2.XY.X, 
TestParameter, AutoAnalysis.Line2.Point2.XY.Y, 
TestParameter, AutoAnalysis.Line2.Point2.Data.Var, 
TestParameter, AutoAnalysis.Line2.Point2.Data.Condition, 
TestParameter, AutoAnalysis.Line2.Point2.Data.Start, false
TestParameter, AutoAnalysis.Line2.Point2.Data.StartVar, 
TestParameter, AutoAnalysis.Line2.Point2.Data.StartCondition, 
TestParameter, AutoAnalysis.Line2.GradientExpr, 0
TestParameter, AutoAnalysis.Marker.Enabled, false
TestParameter, AutoAnalysis.Marker.Data.Var, 
TestParameter, AutoAnalysis.Marker.Data.Condition, 
TestParameter, AutoAnalysis.Marker.Data.Start, false
TestParameter, AutoAnalysis.Marker.Data.StartVar, 
TestParameter, AutoAnalysis.Marker.Data.StartCondition, 
MetaData, TestRecord.EntryPoint, true
MetaData, TestRecord.RecordTime, 10/06/2025 13:27:07
MetaData, TestRecord.TestTarget, E41-A4
MetaData, TestRecord.IterationIndex, 4
MetaData, TestRecord.Preservation, true
MetaData, TestRecord.Flag, 
MetaData, TestRecord.Remarks, 
MetaData, TestRecord.LinkKey, 780dcd4e-8c07-485d-822a-2a680f748c92
Dimension1, 402, 402, 402, 402, 402, 402, 402
Dimension2, 4, 4, 4, 4, 4, 4, 4
DataName, VTG, VD, Vbg, ID, IS, ITG, Ibg
DataValue, -2, 0.1, 1, 7.8733E-10, -7.6601E-10, -2.75E-12, 7.7800000000000012E-12
DataValue, -1.985, 0.1, 1, 7.7479000000000007E-10, -7.7115000000000007E-10, -1.41E-12, 6.6300000000000006E-12
DataValue, -1.9700000000000002, 0.1, 1, 7.8308E-10, -7.7672000000000008E-10, -4.74E-12, 5.79E-12
DataValue, -1.955, 0.1, 1, 7.7321000000000006E-10, -7.6788E-10, -3.4400000000000003E-12, 9.07E-12
DataValue, -1.9400000000000002, 0.1, 1, 7.7160000000000011E-10, -7.6639000000000008E-10, -2.9E-12, 7.6800000000000012E-12
DataValue, -1.925, 0.1, 1, 7.7647000000000011E-10, -7.8286E-10, -4.22E-12, 4.32E-12
DataValue, -1.9100000000000001, 0.1, 1, 8.0816E-10, -8.0351E-10, -1E-13, 3.35E-12
DataValue, -1.895, 0.1, 1, 8.491600000000001E-10, -8.5884000000000011E-10, -2.4500000000000003E-12, 3.66E-12
DataValue, -1.8800000000000001, 0.1, 1, 8.7609E-10, -8.7524000000000007E-10, -2.9900000000000004E-12, 8.2000000000000014E-12
DataValue, -1.865, 0.1, 1, 8.8718E-10, -8.812100000000001E-10, -1.46E-12, 5.48E-12
DataValue, -1.85, 0.1, 1, 9.1245000000000009E-10, -9.1205000000000007E-10, -3.9800000000000004E-12, 3.4900000000000003E-12
DataValue, -1.8350000000000002, 0.1, 1, 9.0915000000000011E-10, -9.129E-10, 1.2000000000000002E-13, 2.9900000000000004E-12
DataValue, -1.82, 0.1, 1, 9.1504000000000008E-10, -9.226000000000001E-10, -1.69E-12, 3.7400000000000006E-12
DataValue, -1.8050000000000002, 0.1, 1, 9.4742E-10, -9.5167E-10, -2.2700000000000002E-12, 6.2300000000000007E-12
DataValue, -1.79, 0.1, 1, 9.7891E-10, -9.8202E-10, -1.21E-12, 4.26E-12
DataValue, -1.7750000000000001, 0.1, 1, 9.9469E-10, -9.9456000000000013E-10, -3.75E-12, 8.4000000000000006E-13
DataValue, -1.76, 0.1, 1, 1.0296800000000001E-09, -1.0232700000000001E-09, 1.5000000000000002E-13, 3.25E-12
DataValue, -1.745, 0.1, 1, 1.0417900000000002E-09, -1.05139E-09, -8.300000000000001E-13, 2.9400000000000004E-12
DataValue, -1.73, 0.1, 1, 1.10385E-09, -1.0932500000000001E-09, -2.0700000000000003E-12, 5.3200000000000008E-12
DataValue, -1.715, 0.1, 1, 1.10194E-09, -1.1033000000000001E-09, 1E-13, 3.76E-12
DataValue, -1.7000000000000002, 0.1, 1, 1.14044E-09, -1.1361100000000001E-09, -3.75E-12, 9.9E-13
DataValue, -1.685, 0.1, 1, 1.1572E-09, -1.1369E-09, -3.61E-12, 4.2000000000000003E-13
DataValue, -1.6700000000000002, 0.1, 1, 1.1559E-09, -1.167E-09, 5.6E-13, 2.11E-12
DataValue, -1.655, 0.1, 1, 1.201E-09, -1.1955E-09, -7.6000000000000009E-13, 2.06E-12
DataValue, -1.6400000000000001, 0.1, 1, 1.2259E-09, -1.2326E-09, -1.36E-12, 5.48E-12
DataValue, -1.625, 0.1, 1, 1.2727E-09, -1.2738E-09, -6.6E-13, 3.5900000000000003E-12
DataValue, -1.61, 0.1, 1, 1.2964E-09, -1.2989E-09, -1.9E-12, 1.3400000000000002E-12
DataValue, -1.595, 0.1, 1, 1.3173E-09, -1.3162E-09, 8.8000000000000009E-13, 1.41E-12
DataValue, -1.58, 0.1, 1, 1.3705E-09, -1.381E-09, -3.1600000000000003E-12, 5E-13
DataValue, -1.5650000000000002, 0.1, 1, 1.3713E-09, -1.3639E-09, 7.4000000000000008E-13, 2.72E-12
DataValue, -1.55, 0.1, 1, 1.4331E-09, -1.4272E-09, -9.5E-13, 1.5600000000000002E-12
DataValue, -1.5350000000000001, 0.1, 1, 1.4296E-09, -1.4201E-09, -7.6000000000000009E-13, 4.4900000000000005E-12
DataValue, -1.52, 0.1, 1, 1.4711E-09, -1.4489E-09, -2.9000000000000003E-13, 2.67E-12
DataValue, -1.5050000000000001, 0.1, 1, 1.4728E-09, -1.4685E-09, -1.73E-12, 1.8700000000000003E-12
DataValue, -1.49, 0.1, 1, 1.5188E-09, -1.5295E-09, 1.3400000000000002E-12, 1.8200000000000003E-12
DataValue, -1.475, 0.1, 1, 1.5978E-09, -1.5923E-09, -2.6000000000000002E-12, 8.2E-13
DataValue, -1.46, 0.1, 1, 1.63E-09, -1.6301E-09, 8.2E-13, 1.7100000000000002E-12
DataValue, -1.445, 0.1, 1, 1.6748E-09, -1.6805E-09, -3.1000000000000004E-13, 1.5800000000000001E-12
DataValue, -1.4300000000000002, 0.1, 1, 1.6972E-09, -1.715E-09, -5.2E-13, 4.73E-12
DataValue, -1.415, 0.1, 1, 1.7461E-09, -1.755E-09, -3.0000000000000005E-14, 2.74E-12
DataValue, -1.4000000000000001, 0.1, 1, 1.8064E-09, -1.8194E-09, -1.6200000000000002E-12, 2.4800000000000003E-12
DataValue, -1.385, 0.1, 1, 1.835E-09, -1.8438E-09, 1.4900000000000001E-12, 5.4E-13
DataValue, -1.37, 0.1, 1, 1.9188E-09, -1.9172E-09, -2.75E-12, 3.3E-13
DataValue, -1.355, 0.1, 1, 1.9665E-09, -1.9695E-09, 1.13E-12, 9.6000000000000015E-13
DataValue, -1.34, 0.1, 1, 2.0112E-09, -2.0247E-09, 1.6000000000000003E-13, 1.04E-12
DataValue, -1.325, 0.1, 1, 2.0711E-09, -2.0601E-09, -1.07E-12, 5.53E-12
DataValue, -1.31, 0.1, 1, 2.1246E-09, -2.1328E-09, 4.1E-13, 2.5000000000000003E-12
DataValue, -1.2950000000000002, 0.1, 1, 2.1714999999999998E-09, -2.1834E-09, -1.1500000000000002E-12, 1.8400000000000002E-12
DataValue, -1.28, 0.1, 1, 2.2526E-09, -2.2814E-09, 1.5800000000000001E-12, 6.2000000000000008E-13
DataValue, -1.2650000000000001, 0.1, 1, 2.3378E-09, -2.3092E-09, -2.5000000000000003E-12, -3.6000000000000003E-13
DataValue, -1.25, 0.1, 1, 2.405E-09, -2.3631E-09, 9.8E-13, 1.88E-12
DataValue, -1.235, 0.1, 1, 2.4524E-09, -2.4582E-09, -3.0000000000000005E-14, 5E-13
DataValue, -1.22, 0.1, 1, 2.5391E-09, -2.5378E-09, -4.2000000000000003E-13, 5.2000000000000005E-12
DataValue, -1.205, 0.1, 1, 2.6486E-09, -2.6008E-09, 9.8E-13, 2.34E-12
DataValue, -1.19, 0.1, 1, 2.5982E-09, -2.5843E-09, -7.9000000000000007E-13, 1.7200000000000001E-12
DataValue, -1.175, 0.1, 1, 2.6538E-09, -2.6378E-09, 1.6800000000000001E-12, 7.2000000000000006E-13
DataValue, -1.1600000000000001, 0.1, 1, 2.7378E-09, -2.7127E-09, -2.3300000000000004E-12, -9.1000000000000016E-13
DataValue, -1.145, 0.1, 1, 2.8245E-09, -2.8391E-09, 9.8E-13, 1.8200000000000003E-12
DataValue, -1.1300000000000001, 0.1, 1, 2.9714E-09, -2.9582E-09, 1.9000000000000002E-13, 4.4000000000000004E-13
DataValue, -1.115, 0.1, 1, 3.0737E-09, -3.0846E-09, -7E-14, 4.77E-12
DataValue, -1.1, 0.1, 1, 3.1278E-09, -3.1334E-09, 6.1E-13, 1.85E-12
DataValue, -1.085, 0.1, 1, 3.2544E-09, -3.259E-09, -8.8000000000000009E-13, -4.9E-13
DataValue, -1.07, 0.1, 1, 3.3238E-09, -3.3039E-09, 1.9200000000000003E-12, 4.5000000000000005E-13
DataValue, -1.0550000000000002, 0.1, 1, 3.406E-09, -3.4109E-09, -2.44E-12, -1.09E-12
DataValue, -1.04, 0.1, 1, 3.4983E-09, -3.4698E-09, 1.0500000000000002E-12, 9.3E-13
DataValue, -1.0250000000000001, 0.1, 1, 3.6175E-09, -3.634E-09, 4.9E-13, 3.6000000000000003E-13
DataValue, -1.01, 0.1, 1, 3.6748E-09, -3.6667E-09, 3.8000000000000005E-13, 3.97E-12
DataValue, -0.995, 0.1, 1, 3.7988E-09, -3.8138E-09, 7.2000000000000006E-13, 2.9600000000000003E-12
DataValue, -0.98000000000000009, 0.1, 1, 3.9688E-09, -3.9631E-09, -7E-13, 5.9E-13
DataValue, -0.96500000000000008, 0.1, 1, 4.0566E-09, -4.0702E-09, 2.1200000000000003E-12, 0
DataValue, -0.95000000000000007, 0.1, 1, 4.1705E-09, -4.1534E-09, -2.4000000000000003E-12, -7.100000000000001E-13
DataValue, -0.935, 0.1, 1, 4.3133E-09, -4.2167E-09, 7.2000000000000006E-13, 8.6000000000000007E-13
DataValue, -0.92, 0.1, 1, 4.4327E-09, -4.436E-09, 6.5000000000000006E-13, 9.2000000000000012E-13
DataValue, -0.905, 0.1, 1, 4.5432E-09, -4.5387E-09, 2.5E-13, 3.8400000000000006E-12
DataValue, -0.89, 0.1, 1, 4.6875E-09, -4.6483E-09, 1.07E-12, 2.5300000000000003E-12
DataValue, -0.875, 0.1, 1, 4.8751E-09, -4.9083E-09, -9.9E-13, 1E-13
DataValue, -0.86, 0.1, 1, 5.1279E-09, -5.1097E-09, 2.0500000000000004E-12, -4.6000000000000006E-13
DataValue, -0.84500000000000008, 0.1, 1, 5.2319E-09, -5.1877E-09, -2.64E-12, -1.04E-12
DataValue, -0.83000000000000007, 0.1, 1, 5.3061E-09, -5.281E-09, 1.03E-12, 1.6300000000000001E-12
DataValue, -0.81500000000000006, 0.1, 1, 5.4819E-09, -5.475E-09, 9.5E-13, 1.83E-12
DataValue, -0.8, 0.1, 1, 5.5516E-09, -5.5515E-09, 5.6E-13, 5.0600000000000007E-12
DataValue, -0.785, 0.1, 1, 5.753E-09, -5.8113E-09, 1.8000000000000002E-12, 1.1900000000000002E-12
DataValue, -0.77, 0.1, 1, 5.9729E-09, -5.9831E-09, -1.1600000000000001E-12, -3.1000000000000004E-13
DataValue, -0.755, 0.1, 1, 6.0784E-09, -6.0547E-09, 1.8000000000000002E-12, -6.0000000000000007E-13
DataValue, -0.74, 0.1, 1, 6.3341E-09, -6.3172E-09, -2.6000000000000002E-12, -1.37E-12
DataValue, -0.72500000000000009, 0.1, 1, 6.5915E-09, -6.5029E-09, 2.8E-13, 1.37E-12
DataValue, -0.71000000000000008, 0.1, 1, 6.6843E-09, -6.6701E-09, 1.32E-12, 4E-13
DataValue, -0.69500000000000006, 0.1, 1, 7.0565E-09, -7.033E-09, 8.2E-13, 4.4500000000000006E-12
DataValue, -0.68, 0.1, 1, 7.2831E-09, -7.3069E-09, 1.6800000000000001E-12, 1.7200000000000001E-12
DataValue, -0.665, 0.1, 1, 7.601E-09, -7.5725E-09, -1.23E-12, 3.0000000000000005E-14
DataValue, -0.65, 0.1, 1, 7.7045E-09, -7.6155E-09, 1.4400000000000001E-12, -9.7000000000000011E-13
DataValue, -0.635, 0.1, 1, 7.8533E-09, -7.8917E-09, -2.36E-12, -2.2000000000000003E-12
DataValue, -0.62, 0.1, 1, 8.0948E-09, -8.0716E-09, 2.2000000000000002E-13, 1.7500000000000002E-12
DataValue, -0.605, 0.1, 1, 8.2381E-09, -8.2552E-09, 1.3800000000000002E-12, 7E-13
DataValue, -0.59000000000000008, 0.1, 1, 8.5173E-09, -8.5758E-09, 1.04E-12, 5.0500000000000005E-12
DataValue, -0.57500000000000007, 0.1, 1, 8.8551E-09, -8.8142E-09, 1.6100000000000002E-12, 2.19E-12
DataValue, -0.56, 0.1, 1, 9.1189E-09, -9.0648E-09, -1.0100000000000001E-12, -1.3900000000000001E-12
DataValue, -0.545, 0.1, 1, 9.3487E-09, -9.3351E-09, 1.7700000000000001E-12, -1.5800000000000001E-12
DataValue, -0.53, 0.1, 1, 9.5462E-09, -9.533E-09, -2.5800000000000003E-12, -2.79E-12
DataValue, -0.515, 0.1, 1, 9.8474E-09, -9.8841E-09, 4.9E-13, 2.16E-12
DataValue, -0.5, 0.1, 1, 1.01912E-08, -1.01392E-08, 1.27E-12, 1.3900000000000001E-12
DataValue, -0.48500000000000004, 0.1, 1, 1.05455E-08, -1.05194E-08, 1.26E-12, 3.5700000000000003E-12
DataValue, -0.47000000000000003, 0.1, 1, 1.07713E-08, -1.08759E-08, 2.29E-12, 2.59E-12
DataValue, -0.455, 0.1, 1, 1.10555E-08, -1.11359E-08, -8.5000000000000011E-13, -1.21E-12
DataValue, -0.44, 0.1, 1, 1.1340199999999999E-08, -1.1474199999999998E-08, 1.3900000000000001E-12, 3.3100000000000002E-12
DataValue, -0.42500000000000004, 0.1, 1, 1.1658199999999999E-08, -1.1702E-08, -2.8800000000000002E-12, -2.5500000000000002E-12
DataValue, -0.41000000000000003, 0.1, 1, 1.2119E-08, -1.2122199999999999E-08, 2.09E-12, 3.61E-12
DataValue, -0.395, 0.1, 1, 1.2542999999999999E-08, -1.2527399999999999E-08, 1.3400000000000002E-12, -1.1900000000000002E-12
DataValue, -0.38, 0.1, 1, 1.2932399999999998E-08, -1.2818999999999999E-08, 1.12E-12, 4.31E-12
DataValue, -0.365, 0.1, 1, 1.3227399999999998E-08, -1.3168599999999999E-08, -2.2700000000000002E-12, -2.2500000000000003E-12
DataValue, -0.35000000000000003, 0.1, 1, 1.3720799999999998E-08, -1.3631399999999998E-08, 1.5200000000000002E-12, 1.32E-12
DataValue, -0.335, 0.1, 1, 1.4201E-08, -1.4094399999999999E-08, 1.83E-12, -3.0000000000000003E-13
DataValue, -0.32, 0.1, 1, 1.4552799999999999E-08, -1.4501799999999999E-08, 2.3000000000000003E-13, 2.13E-12
DataValue, -0.305, 0.1, 1, 1.4777599999999998E-08, -1.4876399999999999E-08, 7.6000000000000009E-13, 2.2000000000000002E-13
DataValue, -0.29000000000000004, 0.1, 1, 1.53344E-08, -1.52294E-08, -1.4400000000000001E-12, -1.36E-12
DataValue, -0.275, 0.1, 1, 1.58082E-08, -1.57934E-08, 2.4300000000000003E-12, 1.6800000000000001E-12
DataValue, -0.26, 0.1, 1, 1.6307399999999997E-08, -1.6326199999999998E-08, 1.1900000000000002E-12, -1.9900000000000002E-12
DataValue, -0.24500000000000002, 0.1, 1, 1.68992E-08, -1.67966E-08, 1.69E-12, 3.53E-12
DataValue, -0.23, 0.1, 1, 1.73976E-08, -1.73714E-08, -3.2700000000000004E-12, -3.2200000000000004E-12
DataValue, -0.215, 0.1, 1, 1.78682E-08, -1.7802399999999998E-08, 2.1000000000000003E-12, 2.4500000000000003E-12
DataValue, -0.2, 0.1, 1, 1.83748E-08, -1.83412E-08, 1.46E-12, -2.19E-12
DataValue, -0.185, 0.1, 1, 1.8893999999999997E-08, -1.8845799999999998E-08, 9.2000000000000012E-13, 3.9900000000000006E-12
DataValue, -0.17, 0.1, 1, 1.9546599999999998E-08, -1.9426599999999997E-08, -1.09E-12, -1.09E-12
DataValue, -0.155, 0.1, 1, 1.9940599999999998E-08, -1.9885E-08, 2.7E-13, 6.3E-13
DataValue, -0.14, 0.1, 1, 2.0504E-08, -2.0378999999999997E-08, 2.5800000000000003E-12, 9.7000000000000011E-13
DataValue, -0.125, 0.1, 1, 2.0708999999999997E-08, -2.0651599999999997E-08, 5.1E-13, 3.7000000000000004E-13
DataValue, -0.11, 0.1, 1, 2.1531799999999996E-08, -2.14966E-08, 8.9E-13, 1.8000000000000002E-12
DataValue, -0.095, 0.1, 1, 2.20752E-08, -2.22772E-08, -2.34E-12, -1.93E-12
DataValue, -0.08, 0.1, 1, 2.2722999999999998E-08, -2.28E-08, 2.57E-12, 2.77E-12
DataValue, -0.065, 0.1, 1, 2.32728E-08, -2.3333399999999996E-08, 1.2900000000000002E-12, -2.0700000000000003E-12
DataValue, -0.05, 0.1, 1, 2.3688599999999996E-08, -2.3783199999999996E-08, 1.7700000000000001E-12, 4.82E-12
DataValue, -0.035, 0.1, 1, 2.41472E-08, -2.4298999999999998E-08, -2.3300000000000004E-12, -2.69E-12
DataValue, -0.02, 0.1, 1, 2.4924999999999997E-08, -2.4835799999999997E-08, 1.83E-12, 5.5000000000000008E-13
DataValue, -0.005, 0.1, 1, 2.5430599999999996E-08, -2.54922E-08, 2.13E-12, -1.0500000000000002E-12
DataValue, 0.01, 0.1, 1, 2.6062599999999998E-08, -2.6278599999999998E-08, 7.3E-13, 1.6200000000000002E-12
DataValue, 0.025, 0.1, 1, 2.68016E-08, -2.6568599999999996E-08, 1.0100000000000001E-12, 1.2500000000000001E-12
DataValue, 0.04, 0.1, 1, 2.7519999999999998E-08, -2.76104E-08, -2.01E-12, -2.09E-12
DataValue, 0.055, 0.1, 1, 2.8490399999999997E-08, -2.8210799999999996E-08, 2.24E-12, 1.17E-12
DataValue, 0.07, 0.1, 1, 2.87498E-08, -2.8900199999999998E-08, 1.18E-12, -2.75E-12
DataValue, 0.085, 0.1, 1, 2.9404399999999998E-08, -2.9371399999999997E-08, 1.69E-12, 4.8000000000000005E-12
DataValue, 0.1, 0.1, 1, 3.0124399999999994E-08, -3.0177E-08, -3.23E-12, -4.43E-12
