
SetupTitle, ExfoliatedMoS2_TGIdVg
PrimitiveTest, I/V Sweep
TestParameter, Context.MainFrame, B1500A
TestParameter, Channel.UnitType, SMU, SMU, SMU, SMU
TestParameter, Channel.Unit, SMU2:HR, SMU1:HR, SMU4:HR, SMU3:HR
TestParameter, Channel.IName, ID, IS, ITG, Ibg
TestParameter, Channel.VName, VD, VS, VTG, Vbg
TestParameter, Channel.Mode, V, COMMON, V, V
TestParameter, Channel.Func, VAR2, CONST, VAR1, CONST
TestParameter, Channel.Index, 
TestParameter, Channel.Time, 
TestParameter, Measurement.Port.Unit, SMU2:HR, SMU1:HR, SMU4:HR, SMU3:HR
TestParameter, Measurement.Port.SeriesResistor, NONE, NONE, NONE, NONE
TestParameter, Measurement.Port.Filter, ON, ON, ON, ON
TestParameter, Measurement.Port.OutputVoltageComparison, 0, 0, 0, 0
TestParameter, Measurement.Primary.Locus, Double
TestParameter, Measurement.Primary.Scale, LINEAR
TestParameter, Measurement.Primary.Start, -2
TestParameter, Measurement.Primary.Stop, 1
TestParameter, Measurement.Primary.Step, 0.015000000000000001
TestParameter, Measurement.Primary.Compliance, 0.005
TestParameter, Measurement.Primary.PowerCompliance, 0
TestParameter, Measurement.Aborting.Condition, CONTINUE AT ANY
TestParameter, Measurement.PostOutput.Value, START
TestParameter, Measurement.PostOutput.Retention, OFF
TestParameter, Measurement.Secondary.Start, 0.1
TestParameter, Measurement.Secondary.Count, 4
TestParameter, Measurement.Secondary.Step, 0.3
TestParameter, Measurement.Secondary.Compliance, 0.005
TestParameter, Measurement.Secondary.PowerCompliance, 0
TestParameter, Measurement.Bias.Source, 0.1, 0, -2, 0.5
TestParameter, Measurement.Bias.Compliance, 0.005, 0.1, 0.005, 0.1
TestParameter, Measurement.Monitor.Unit, SMU2:HR, SMU1:HR, SMU4:HR, SMU3:HR
TestParameter, Measurement.Monitor.Adc, HR ADC, HR ADC, HR ADC, HR ADC
TestParameter, Measurement.Monitor.Measurement, Compliance Side, Compliance Side, Compliance Side, Compliance Side
TestParameter, Measurement.Monitor.RangingMode, LIMITED, LIMITED, LIMITED, LIMITED
TestParameter, Measurement.Monitor.RangeBoundary, 1nA, 1nA, 1nA, 1nA
TestParameter, Measurement.Monitor.RangeRating, BY FULL RANGE, BY FULL RANGE, BY FULL RANGE, BY FULL RANGE
TestParameter, Measurement.Monitor.RangeRatingCoeff, 50, 50, 50, 50
TestParameter, Measurement.Timing.Hold, 0
TestParameter, Measurement.Timing.Delay, 0
TestParameter, Measurement.Adc.HighSpeed.Mode, AUTO
TestParameter, Measurement.Adc.HighSpeed.Coeff, 1
TestParameter, Measurement.Adc.HighResolution.AutoZero, OFF
TestParameter, Measurement.Adc.HighResolution.Mode, AUTO
TestParameter, Measurement.Adc.HighResolution.Coeff, 6
TestParameter, Measurement.WaitTime.Source.Coeff, 1
TestParameter, Measurement.WaitTime.Source.Offset, 0
TestParameter, Measurement.WaitTime.Monitor.Coeff, 1
TestParameter, Measurement.WaitTime.Monitor.Offset, 0
TestParameter, Output.Graph.Enabled, true
TestParameter, Output.Graph.AutoScaling, false
TestParameter, Output.Graph.XAxis.Data, VTG
TestParameter, Output.Graph.XAxis.Scale, Linear
TestParameter, Output.Graph.XAxis.Left, -1
TestParameter, Output.Graph.XAxis.Right, 1
TestParameter, Output.Graph.XAxis.RunTimeAutoScale, false
TestParameter, Output.Graph.YAxis.Data, ID, ITG
TestParameter, Output.Graph.YAxis.Scale, Linear, Linear
TestParameter, Output.Graph.YAxis.Bottom, -0.1, -0.001
TestParameter, Output.Graph.YAxis.Top, 0.1, 0.001
TestParameter, Output.Graph.YAxis.Group, , 
TestParameter, Output.Graph.YAxis.RunTimeAutoScale, true, false
TestParameter, Output.List.Data, VTG, ID, VD, Vbg, Ibg, ITG, IS
TestParameter, AutoAnalysis.Interpolation, false
TestParameter, AutoAnalysis.Line1.Enabled, false
TestParameter, AutoAnalysis.Line1.Type, 1
TestParameter, AutoAnalysis.Line1.Fix, True
TestParameter, AutoAnalysis.Line1.YAxis, 0
TestParameter, AutoAnalysis.Line1.Point1.Type, 0
TestParameter, AutoAnalysis.Line1.Point1.XY.X, 
TestParameter, AutoAnalysis.Line1.Point1.XY.Y, 
TestParameter, AutoAnalysis.Line1.Point1.Data.Var, 
TestParameter, AutoAnalysis.Line1.Point1.Data.Condition, 
TestParameter, AutoAnalysis.Line1.Point1.Data.Start, false
TestParameter, AutoAnalysis.Line1.Point1.Data.StartVar, 
TestParameter, AutoAnalysis.Line1.Point1.Data.StartCondition, 
TestParameter, AutoAnalysis.Line1.Point2.Type, 0
TestParameter, AutoAnalysis.Line1.Point2.XY.X, 
TestParameter, AutoAnalysis.Line1.Point2.XY.Y, 
TestParameter, AutoAnalysis.Line1.Point2.Data.Var, 
TestParameter, AutoAnalysis.Line1.Point2.Data.Condition, 
TestParameter, AutoAnalysis.Line1.Point2.Data.Start, false
TestParameter, AutoAnalysis.Line1.Point2.Data.StartVar, 
TestParameter, AutoAnalysis.Line1.Point2.Data.StartCondition, 
TestParameter, AutoAnalysis.Line1.GradientExpr, 0
TestParameter, AutoAnalysis.Line2.Enabled, false
TestParameter, AutoAnalysis.Line2.Type, 1
TestParameter, AutoAnalysis.Line2.Fix, True
TestParameter, AutoAnalysis.Line2.YAxis, 0
TestParameter, AutoAnalysis.Line2.Point1.Type, 0
TestParameter, AutoAnalysis.Line2.Point1.XY.X, 
TestParameter, AutoAnalysis.Line2.Point1.XY.Y, 
TestParameter, AutoAnalysis.Line2.Point1.Data.Var, 
TestParameter, AutoAnalysis.Line2.Point1.Data.Condition, 
TestParameter, AutoAnalysis.Line2.Point1.Data.Start, false
TestParameter, AutoAnalysis.Line2.Point1.Data.StartVar, 
TestParameter, AutoAnalysis.Line2.Point1.Data.StartCondition, 
TestParameter, AutoAnalysis.Line2.Point2.Type, 0
TestParameter, AutoAnalysis.Line2.Point2.XY.X, 
TestParameter, AutoAnalysis.Line2.Point2.XY.Y, 
TestParameter, AutoAnalysis.Line2.Point2.Data.Var, 
TestParameter, AutoAnalysis.Line2.Point2.Data.Condition, 
TestParameter, AutoAnalysis.Line2.Point2.Data.Start, false
TestParameter, AutoAnalysis.Line2.Point2.Data.StartVar, 
TestParameter, AutoAnalysis.Line2.Point2.Data.StartCondition, 
TestParameter, AutoAnalysis.Line2.GradientExpr, 0
TestParameter, AutoAnalysis.Marker.Enabled, false
TestParameter, AutoAnalysis.Marker.Data.Var, 
TestParameter, AutoAnalysis.Marker.Data.Condition, 
TestParameter, AutoAnalysis.Marker.Data.Start, false
TestParameter, AutoAnalysis.Marker.Data.StartVar, 
TestParameter, AutoAnalysis.Marker.Data.StartCondition, 
MetaData, TestRecord.EntryPoint, true
MetaData, TestRecord.RecordTime, 10/06/2025 13:57:08
MetaData, TestRecord.TestTarget, E41-G14
MetaData, TestRecord.IterationIndex, 1
MetaData, TestRecord.Preservation, true
MetaData, TestRecord.Flag, 
MetaData, TestRecord.Remarks, 
MetaData, TestRecord.LinkKey, be1e78ea-23a8-4a71-a1d2-e2d158bb0586
Dimension1, 402, 402, 402, 402, 402, 402, 402
Dimension2, 4, 4, 4, 4, 4, 4, 4
DataName, VTG, VD, Vbg, ID, IS, ITG, Ibg
DataValue, -2, 0.1, 0.5, 6.9647000000000008E-10, -7.2535000000000009E-10, -5.48E-12, 7.2500000000000008E-12
DataValue, -1.985, 0.1, 0.5, 7.2522000000000011E-10, -7.2938E-10, -2.9600000000000003E-12, 7.72E-12
DataValue, -1.9700000000000002, 0.1, 0.5, 7.4016000000000006E-10, -7.4228E-10, -3.0100000000000003E-12, 7.26E-12
DataValue, -1.955, 0.1, 0.5, 7.554000000000001E-10, -7.5767E-10, -4.8000000000000005E-12, 8.5000000000000013E-12
DataValue, -1.9400000000000002, 0.1, 0.5, 7.6135000000000006E-10, -7.653E-10, -1.17E-12, 6.7800000000000006E-12
DataValue, -1.925, 0.1, 0.5, 7.7599E-10, -7.7721E-10, -4.3900000000000005E-12, 4.07E-12
DataValue, -1.9100000000000001, 0.1, 0.5, 7.8693000000000009E-10, -7.909200000000001E-10, -2.67E-12, 6.86E-12
DataValue, -1.895, 0.1, 0.5, 7.976E-10, -7.9874000000000008E-10, -1.91E-12, 5.1600000000000006E-12
DataValue, -1.8800000000000001, 0.1, 0.5, 7.990800000000001E-10, -8.0215000000000007E-10, -4.16E-12, 5.4100000000000006E-12
DataValue, -1.865, 0.1, 0.5, 8.1439E-10, -8.145200000000001E-10, -1.0000000000000002E-14, 4.2500000000000007E-12
DataValue, -1.85, 0.1, 0.5, 8.2577E-10, -8.235600000000001E-10, -2.92E-12, 2.9900000000000004E-12
DataValue, -1.8350000000000002, 0.1, 0.5, 8.3175E-10, -8.4025000000000007E-10, -2.54E-12, 6.8800000000000006E-12
DataValue, -1.82, 0.1, 0.5, 8.5531E-10, -8.5399000000000007E-10, -1.86E-12, 4.28E-12
DataValue, -1.8050000000000002, 0.1, 0.5, 8.7194000000000009E-10, -8.6735000000000011E-10, -3.7800000000000005E-12, 4.51E-12
DataValue, -1.79, 0.1, 0.5, 8.8113E-10, -8.8055E-10, 6.2000000000000008E-13, 2.82E-12
DataValue, -1.7750000000000001, 0.1, 0.5, 9.0437000000000005E-10, -9.0196000000000006E-10, -1.9400000000000002E-12, 2.77E-12
DataValue, -1.76, 0.1, 0.5, 9.2409000000000006E-10, -9.2907000000000008E-10, -2.44E-12, 5.74E-12
DataValue, -1.745, 0.1, 0.5, 9.3109E-10, -9.3826E-10, -7.9000000000000007E-13, 4.18E-12
DataValue, -1.73, 0.1, 0.5, 9.5104E-10, -9.4705000000000016E-10, -3.71E-12, 2.36E-12
DataValue, -1.715, 0.1, 0.5, 9.664E-10, -9.6745E-10, 6.8E-13, 1.9E-12
DataValue, -1.7000000000000002, 0.1, 0.5, 9.9194E-10, -9.8979000000000016E-10, -5.4E-13, 2.31E-12
DataValue, -1.685, 0.1, 0.5, 1.00168E-09, -1.00327E-09, -1.9400000000000002E-12, 6.7E-12
DataValue, -1.6700000000000002, 0.1, 0.5, 1.0135100000000002E-09, -1.0133200000000002E-09, 1.0000000000000002E-14, 3.6800000000000005E-12
DataValue, -1.655, 0.1, 0.5, 1.0231000000000001E-09, -1.02369E-09, -3.1E-12, 1.0500000000000002E-12
DataValue, -1.6400000000000001, 0.1, 0.5, 1.04761E-09, -1.05405E-09, 3.9000000000000005E-13, 2.1500000000000003E-12
DataValue, -1.625, 0.1, 0.5, 1.07516E-09, -1.07012E-09, -3.4E-13, 2.0700000000000003E-12
DataValue, -1.61, 0.1, 0.5, 1.10023E-09, -1.10018E-09, -1.46E-12, 6.2400000000000009E-12
DataValue, -1.595, 0.1, 0.5, 1.11995E-09, -1.12497E-09, 1.0100000000000001E-12, 2.9600000000000003E-12
DataValue, -1.58, 0.1, 0.5, 1.1405200000000001E-09, -1.1671E-09, -8.1000000000000008E-13, 1.9700000000000003E-12
DataValue, -1.5650000000000002, 0.1, 0.5, 1.1776E-09, -1.176E-09, -2.41E-12, -4.2000000000000003E-13
DataValue, -1.55, 0.1, 0.5, 1.1785E-09, -1.183E-09, -1.09E-12, 3.3E-12
DataValue, -1.5350000000000001, 0.1, 0.5, 1.2086E-09, -1.2156E-09, -7E-14, 2.75E-12
DataValue, -1.52, 0.1, 0.5, 1.2306999999999999E-09, -1.2317E-09, -1.4400000000000001E-12, 5.03E-12
DataValue, -1.5050000000000001, 0.1, 0.5, 1.2507E-09, -1.2564E-09, 9.1000000000000016E-13, 2.67E-12
DataValue, -1.49, 0.1, 0.5, 1.2775E-09, -1.2823E-09, -3.1200000000000004E-12, 1.0500000000000002E-12
DataValue, -1.475, 0.1, 0.5, 1.2983E-09, -1.3029E-09, 1.3900000000000001E-12, 7.2000000000000006E-13
DataValue, -1.46, 0.1, 0.5, 1.3246E-09, -1.3139E-09, -2.51E-12, 2.1000000000000001E-13
DataValue, -1.445, 0.1, 0.5, 1.3326E-09, -1.3351E-09, -1.22E-12, 3.4400000000000003E-12
DataValue, -1.4300000000000002, 0.1, 0.5, 1.3679E-09, -1.3705E-09, -7E-14, 2.9600000000000003E-12
DataValue, -1.415, 0.1, 0.5, 1.4182E-09, -1.4155E-09, -1.0100000000000001E-12, 4.8100000000000007E-12
DataValue, -1.4000000000000001, 0.1, 0.5, 1.4344E-09, -1.4306E-09, 1.8000000000000002E-12, 3.1100000000000003E-12
DataValue, -1.385, 0.1, 0.5, 1.4677E-09, -1.4597E-09, -2.8400000000000004E-12, -3.0000000000000003E-13
DataValue, -1.37, 0.1, 0.5, 1.4901E-09, -1.4871E-09, 1.69E-12, -2.62E-12
DataValue, -1.355, 0.1, 0.5, 1.5313E-09, -1.5279E-09, -1.85E-12, 8.8000000000000009E-13
DataValue, -1.34, 0.1, 0.5, 1.5604E-09, -1.5615E-09, -1.3000000000000001E-12, 3.6800000000000005E-12
DataValue, -1.325, 0.1, 0.5, 1.5902E-09, -1.5901E-09, 3.7000000000000004E-13, 2.6500000000000002E-12
DataValue, -1.31, 0.1, 0.5, 1.6252E-09, -1.6284E-09, -9.6000000000000015E-13, 5.74E-12
DataValue, -1.2950000000000002, 0.1, 0.5, 1.6784E-09, -1.6804E-09, 1.79E-12, 1.74E-12
DataValue, -1.28, 0.1, 0.5, 1.6941E-09, -1.6923E-09, -1.95E-12, -3.0000000000000005E-14
DataValue, -1.2650000000000001, 0.1, 0.5, 1.7345E-09, -1.7326E-09, 1.5600000000000002E-12, -1.5800000000000001E-12
DataValue, -1.25, 0.1, 0.5, 1.7752E-09, -1.7668E-09, -2.21E-12, -1.32E-12
DataValue, -1.235, 0.1, 0.5, 1.8003E-09, -1.7924E-09, -1.51E-12, 3.48E-12
DataValue, -1.22, 0.1, 0.5, 1.8203E-09, -1.8285E-09, 1.04E-12, 1.8900000000000002E-12
DataValue, -1.205, 0.1, 0.5, 1.8579E-09, -1.8735E-09, 2.7E-13, 6.04E-12
DataValue, -1.19, 0.1, 0.5, 1.9123E-09, -1.9032E-09, 2.54E-12, 3.63E-12
DataValue, -1.175, 0.1, 0.5, 1.9673E-09, -1.9721E-09, -2.26E-12, -6.5000000000000006E-13
DataValue, -1.1600000000000001, 0.1, 0.5, 2.0159E-09, -2.0121E-09, 1.5000000000000002E-13, -6.400000000000001E-13
DataValue, -1.145, 0.1, 0.5, 2.0356E-09, -2.0353E-09, -1.7100000000000002E-12, -1.2800000000000002E-12
DataValue, -1.1300000000000001, 0.1, 0.5, 2.0947E-09, -2.101E-09, -1.26E-12, 3.6000000000000004E-12
DataValue, -1.115, 0.1, 0.5, 2.1233E-09, -2.1239E-09, 8.6000000000000007E-13, 1.98E-12
DataValue, -1.1, 0.1, 0.5, 2.1776E-09, -2.1752E-09, -3.3E-13, 3.8400000000000006E-12
DataValue, -1.085, 0.1, 0.5, 2.2292E-09, -2.2272E-09, 3.02E-12, 2.0500000000000004E-12
DataValue, -1.07, 0.1, 0.5, 2.268E-09, -2.282E-09, -1.7000000000000002E-12, -5.2E-13
DataValue, -1.0550000000000002, 0.1, 0.5, 2.3494E-09, -2.344E-09, 1.5E-12, -2.0000000000000003E-14
DataValue, -1.04, 0.1, 0.5, 2.393E-09, -2.3826E-09, -2.0200000000000003E-12, -2.09E-12
DataValue, -1.0250000000000001, 0.1, 0.5, 2.4399E-09, -2.4408E-09, -1.04E-12, 4.0400000000000006E-12
DataValue, -1.01, 0.1, 0.5, 2.4756E-09, -2.4786E-09, 2.9000000000000003E-13, 2.82E-12
DataValue, -0.995, 0.1, 0.5, 2.5285E-09, -2.5409E-09, -4.0000000000000006E-14, 2.47E-12
DataValue, -0.98000000000000009, 0.1, 0.5, 2.5987E-09, -2.5926E-09, 2.54E-12, 2.69E-12
DataValue, -0.96500000000000008, 0.1, 0.5, 2.6451E-09, -2.6615E-09, -4.8000000000000008E-13, -3.3E-13
DataValue, -0.95000000000000007, 0.1, 0.5, 2.7007E-09, -2.6864E-09, 1.8700000000000003E-12, -2.7E-13
DataValue, -0.935, 0.1, 0.5, 2.7603E-09, -2.7566E-09, -8.7E-13, -2.1500000000000003E-12
DataValue, -0.92, 0.1, 0.5, 2.8225E-09, -2.8142E-09, -1.2500000000000001E-12, 3.56E-12
DataValue, -0.905, 0.1, 0.5, 2.8694E-09, -2.8858E-09, 4.2000000000000003E-13, 2.77E-12
DataValue, -0.89, 0.1, 0.5, 2.9731E-09, -2.9645E-09, -4.3000000000000004E-13, 4.62E-12
DataValue, -0.875, 0.1, 0.5, 2.9817E-09, -2.9804E-09, 2.29E-12, 1.3900000000000001E-12
DataValue, -0.86, 0.1, 0.5, 3.0808E-09, -3.0634E-09, -2.72E-12, -1.6800000000000001E-12
DataValue, -0.84500000000000008, 0.1, 0.5, 3.1424E-09, -3.136E-09, 1.9700000000000003E-12, -2.67E-12
DataValue, -0.83000000000000007, 0.1, 0.5, 3.2322E-09, -3.2254E-09, -1.12E-12, -4.2000000000000003E-13
DataValue, -0.81500000000000006, 0.1, 0.5, 3.2845E-09, -3.2858E-09, -1.04E-12, 3.63E-12
DataValue, -0.8, 0.1, 0.5, 3.3417E-09, -3.3527E-09, 3.3E-13, 1.3800000000000002E-12
DataValue, -0.785, 0.1, 0.5, 3.4077E-09, -3.4186E-09, 1.6000000000000003E-13, 3.86E-12
DataValue, -0.77, 0.1, 0.5, 3.5113E-09, -3.5111E-09, 3.0400000000000004E-12, 7.5E-13
DataValue, -0.755, 0.1, 0.5, 3.5949E-09, -3.5809E-09, -1.98E-12, -9.8E-13
DataValue, -0.74, 0.1, 0.5, 3.7126E-09, -3.7104E-09, 5.6E-13, -8.6000000000000007E-13
DataValue, -0.72500000000000009, 0.1, 0.5, 3.7678E-09, -3.7691E-09, -1E-12, -1.6700000000000002E-12
DataValue, -0.71000000000000008, 0.1, 0.5, 3.8708E-09, -3.8797E-09, -1.09E-12, 4.03E-12
DataValue, -0.69500000000000006, 0.1, 0.5, 3.9973E-09, -4.0045E-09, 1.78E-12, 1.88E-12
DataValue, -0.68, 0.1, 0.5, 4.0708E-09, -4.0802E-09, 3.8000000000000005E-13, 3.5700000000000003E-12
DataValue, -0.665, 0.1, 0.5, 4.1215E-09, -4.1091E-09, 2.7100000000000004E-12, 6.5000000000000006E-13
DataValue, -0.65, 0.1, 0.5, 4.2161E-09, -4.2156E-09, -2.39E-12, -1.36E-12
DataValue, -0.635, 0.1, 0.5, 4.3016E-09, -4.2807E-09, 1.3800000000000002E-12, -2.4000000000000004E-13
DataValue, -0.62, 0.1, 0.5, 4.3839E-09, -4.3745E-09, -1.64E-12, -1.95E-12
DataValue, -0.605, 0.1, 0.5, 4.513E-09, -4.5065E-09, -8.4000000000000006E-13, 3.82E-12
DataValue, -0.59000000000000008, 0.1, 0.5, 4.6241E-09, -4.6554E-09, 7.4000000000000008E-13, 1.69E-12
DataValue, -0.57500000000000007, 0.1, 0.5, 4.7118E-09, -4.7193E-09, 6.400000000000001E-13, 2.9300000000000002E-12
DataValue, -0.56, 0.1, 0.5, 4.8775E-09, -4.8873E-09, 3.63E-12, 1.6800000000000001E-12
DataValue, -0.545, 0.1, 0.5, 4.9917E-09, -4.9597E-09, -2.14E-12, -2.13E-12
DataValue, -0.53, 0.1, 0.5, 5.098E-09, -5.1017E-09, 1.37E-12, -1.7000000000000002E-12
DataValue, -0.515, 0.1, 0.5, 5.2647E-09, -5.2319E-09, -5.2E-13, -1.1900000000000002E-12
DataValue, -0.5, 0.1, 0.5, 5.3829E-09, -5.3737E-09, -7E-13, 3.66E-12
DataValue, -0.48500000000000004, 0.1, 0.5, 5.4315E-09, -5.4508E-09, 1.5600000000000002E-12, 2.0700000000000003E-12
DataValue, -0.47000000000000003, 0.1, 0.5, 5.573E-09, -5.5783E-09, 2.2000000000000002E-13, 2.0200000000000003E-12
DataValue, -0.455, 0.1, 0.5, 5.6803E-09, -5.7017E-09, 2.49E-12, 1.1100000000000001E-12
DataValue, -0.44, 0.1, 0.5, 5.8242E-09, -5.7993E-09, -2.74E-12, -2.72E-12
DataValue, -0.42500000000000004, 0.1, 0.5, 5.9721E-09, -5.9933E-09, 5.5000000000000008E-13, -1.4200000000000002E-12
DataValue, -0.41000000000000003, 0.1, 0.5, 6.1194E-09, -6.1126E-09, -2.3000000000000003E-13, -6.9000000000000009E-13
DataValue, -0.395, 0.1, 0.5, 6.3344E-09, -6.336E-09, -2.6E-13, 3.3200000000000004E-12
DataValue, -0.38, 0.1, 0.5, 6.4397E-09, -6.4429E-09, 1.83E-12, 1.86E-12
DataValue, -0.365, 0.1, 0.5, 6.5331E-09, -6.54E-09, 8.1000000000000008E-13, 9.3E-13
DataValue, -0.35000000000000003, 0.1, 0.5, 6.746E-09, -6.7617E-09, 2E-12, -3.2000000000000005E-13
DataValue, -0.335, 0.1, 0.5, 6.9347E-09, -6.9387E-09, -2.5600000000000004E-12, -2.04E-12
DataValue, -0.32, 0.1, 0.5, 7.0569E-09, -7.0285E-09, 1.6700000000000002E-12, -2.09E-12
DataValue, -0.305, 0.1, 0.5, 7.2255E-09, -7.1966E-09, 1.5000000000000002E-13, -6.7000000000000007E-13
DataValue, -0.29000000000000004, 0.1, 0.5, 7.3251E-09, -7.3256E-09, -1.0000000000000002E-14, 3.61E-12
DataValue, -0.275, 0.1, 0.5, 7.5526E-09, -7.5848E-09, 1.96E-12, 1.3400000000000002E-12
DataValue, -0.26, 0.1, 0.5, 7.8187E-09, -7.7982E-09, 2.4000000000000004E-13, 2.14E-12
DataValue, -0.24500000000000002, 0.1, 0.5, 7.9661E-09, -7.9943E-09, 2.64E-12, 3.7000000000000004E-13
DataValue, -0.23, 0.1, 0.5, 8.2322E-09, -8.2062E-09, -2.5800000000000003E-12, -1.69E-12
DataValue, -0.215, 0.1, 0.5, 8.3417E-09, -8.3361E-09, 1.14E-12, -1.2500000000000001E-12
DataValue, -0.2, 0.1, 0.5, 8.5878E-09, -8.5549E-09, 1.7E-13, 1.7E-13
DataValue, -0.185, 0.1, 0.5, 8.7839E-09, -8.7773E-09, -8.0000000000000013E-14, 5.3500000000000004E-12
DataValue, -0.17, 0.1, 0.5, 9.0382E-09, -9.0556E-09, 1.8100000000000002E-12, 1.86E-12
DataValue, -0.155, 0.1, 0.5, 9.1045E-09, -9.11E-09, 6.3E-13, 1.04E-12
DataValue, -0.14, 0.1, 0.5, 9.2407E-09, -9.208E-09, 2.75E-12, 2.2000000000000002E-13
DataValue, -0.125, 0.1, 0.5, 9.4318E-09, -9.4224E-09, -2.36E-12, -7.3E-13
DataValue, -0.11, 0.1, 0.5, 9.6902E-09, -9.6482E-09, 9.1000000000000016E-13, -1.3300000000000002E-12
DataValue, -0.095, 0.1, 0.5, 9.9295E-09, -9.8953E-09, 1.9000000000000002E-13, -6.6E-13
DataValue, -0.08, 0.1, 0.5, 1.0135E-08, -1.01057E-08, 7E-14, 5.44E-12
DataValue, -0.065, 0.1, 0.5, 1.03973E-08, -1.03751E-08, 2.13E-12, 1.4300000000000002E-12
DataValue, -0.05, 0.1, 0.5, 1.06323E-08, -1.05827E-08, -8.0000000000000013E-14, 9.7000000000000011E-13
DataValue, -0.035, 0.1, 0.5, 1.09182E-08, -1.08861E-08, 2.37E-12, -1.1000000000000001E-13
DataValue, -0.02, 0.1, 0.5, 1.11607E-08, -1.11111E-08, -2.59E-12, -2.44E-12
DataValue, -0.005, 0.1, 0.5, 1.1295E-08, -1.1303799999999999E-08, -3.0000000000000003E-13, 2.31E-12
DataValue, 0.01, 0.1, 0.5, 1.1517399999999998E-08, -1.1463599999999999E-08, 7E-14, 1.27E-12
DataValue, 0.025, 0.1, 0.5, 1.1721E-08, -1.1789599999999998E-08, -1.18E-12, -4.4000000000000004E-13
DataValue, 0.04, 0.1, 0.5, 1.2098999999999998E-08, -1.21034E-08, 2.08E-12, 1.36E-12
DataValue, 0.055, 0.1, 0.5, 1.2196199999999998E-08, -1.2249E-08, 1.4300000000000002E-12, -1.88E-12
DataValue, 0.07, 0.1, 0.5, 1.2439799999999998E-08, -1.2493199999999999E-08, 7.8000000000000011E-13, 4.89E-12
DataValue, 0.085, 0.1, 0.5, 1.2676199999999998E-08, -1.2641999999999998E-08, -2.74E-12, -2.2200000000000002E-12
DataValue, 0.1, 0.1, 0.5, 1.2760599999999999E-08, -1.2827599999999999E-08, 1.73E-12, 6.9000000000000009E-13
DataValue, 0.115, 0.1, 0.5, 1.30358E-08, -1.3086199999999998E-08, 2.72E-12, -2.39E-12
DataValue, 0.13, 0.1, 0.5, 1.3275599999999999E-08, -1.3193999999999999E-08, -8.0000000000000013E-14, 2.9E-12
