
SetupTitle, ExfoliatedMoS2_TGIdVg
PrimitiveTest, I/V Sweep
TestParameter, Context.MainFrame, B1500A
TestParameter, Channel.UnitType, SMU, SMU, SMU, SMU
TestParameter, Channel.Unit, SMU2:HR, SMU1:HR, SMU4:HR, SMU3:HR
TestParameter, Channel.IName, ID, IS, ITG, Ibg
TestParameter, Channel.VName, VD, VS, VTG, Vbg
TestParameter, Channel.Mode, V, COMMON, V, V
TestParameter, Channel.Func, VAR2, CONST, VAR1, CONST
TestParameter, Channel.Index, 
TestParameter, Channel.Time, 
TestParameter, Measurement.Port.Unit, SMU2:HR, SMU1:HR, SMU4:HR, SMU3:HR
TestParameter, Measurement.Port.SeriesResistor, NONE, NONE, NONE, NONE
TestParameter, Measurement.Port.Filter, ON, ON, ON, ON
TestParameter, Measurement.Port.OutputVoltageComparison, 0, 0, 0, 0
TestParameter, Measurement.Primary.Locus, Double
TestParameter, Measurement.Primary.Scale, LINEAR
TestParameter, Measurement.Primary.Start, -2
TestParameter, Measurement.Primary.Stop, 1
TestParameter, Measurement.Primary.Step, 0.015000000000000001
TestParameter, Measurement.Primary.Compliance, 0.005
TestParameter, Measurement.Primary.PowerCompliance, 0
TestParameter, Measurement.Aborting.Condition, CONTINUE AT ANY
TestParameter, Measurement.PostOutput.Value, START
TestParameter, Measurement.PostOutput.Retention, OFF
TestParameter, Measurement.Secondary.Start, 0.1
TestParameter, Measurement.Secondary.Count, 4
TestParameter, Measurement.Secondary.Step, 0.3
TestParameter, Measurement.Secondary.Compliance, 0.005
TestParameter, Measurement.Secondary.PowerCompliance, 0
TestParameter, Measurement.Bias.Source, 0.1, 0, -2, 0.5
TestParameter, Measurement.Bias.Compliance, 0.005, 0.1, 0.005, 0.1
TestParameter, Measurement.Monitor.Unit, SMU2:HR, SMU1:HR, SMU4:HR, SMU3:HR
TestParameter, Measurement.Monitor.Adc, HR ADC, HR ADC, HR ADC, HR ADC
TestParameter, Measurement.Monitor.Measurement, Compliance Side, Compliance Side, Compliance Side, Compliance Side
TestParameter, Measurement.Monitor.RangingMode, LIMITED, LIMITED, LIMITED, LIMITED
TestParameter, Measurement.Monitor.RangeBoundary, 1nA, 1nA, 1nA, 1nA
TestParameter, Measurement.Monitor.RangeRating, BY FULL RANGE, BY FULL RANGE, BY FULL RANGE, BY FULL RANGE
TestParameter, Measurement.Monitor.RangeRatingCoeff, 50, 50, 50, 50
TestParameter, Measurement.Timing.Hold, 0
TestParameter, Measurement.Timing.Delay, 0
TestParameter, Measurement.Adc.HighSpeed.Mode, AUTO
TestParameter, Measurement.Adc.HighSpeed.Coeff, 1
TestParameter, Measurement.Adc.HighResolution.AutoZero, OFF
TestParameter, Measurement.Adc.HighResolution.Mode, AUTO
TestParameter, Measurement.Adc.HighResolution.Coeff, 6
TestParameter, Measurement.WaitTime.Source.Coeff, 1
TestParameter, Measurement.WaitTime.Source.Offset, 0
TestParameter, Measurement.WaitTime.Monitor.Coeff, 1
TestParameter, Measurement.WaitTime.Monitor.Offset, 0
TestParameter, Output.Graph.Enabled, true
TestParameter, Output.Graph.AutoScaling, false
TestParameter, Output.Graph.XAxis.Data, VTG
TestParameter, Output.Graph.XAxis.Scale, Linear
TestParameter, Output.Graph.XAxis.Left, -1
TestParameter, Output.Graph.XAxis.Right, 1
TestParameter, Output.Graph.XAxis.RunTimeAutoScale, false
TestParameter, Output.Graph.YAxis.Data, ID, ITG
TestParameter, Output.Graph.YAxis.Scale, Linear, Linear
TestParameter, Output.Graph.YAxis.Bottom, -0.1, -0.001
TestParameter, Output.Graph.YAxis.Top, 0.1, 0.001
TestParameter, Output.Graph.YAxis.Group, , 
TestParameter, Output.Graph.YAxis.RunTimeAutoScale, true, false
TestParameter, Output.List.Data, VTG, ID, VD, Vbg, Ibg, ITG, IS
TestParameter, AutoAnalysis.Interpolation, false
TestParameter, AutoAnalysis.Line1.Enabled, false
TestParameter, AutoAnalysis.Line1.Type, 1
TestParameter, AutoAnalysis.Line1.Fix, True
TestParameter, AutoAnalysis.Line1.YAxis, 0
TestParameter, AutoAnalysis.Line1.Point1.Type, 0
TestParameter, AutoAnalysis.Line1.Point1.XY.X, 
TestParameter, AutoAnalysis.Line1.Point1.XY.Y, 
TestParameter, AutoAnalysis.Line1.Point1.Data.Var, 
TestParameter, AutoAnalysis.Line1.Point1.Data.Condition, 
TestParameter, AutoAnalysis.Line1.Point1.Data.Start, false
TestParameter, AutoAnalysis.Line1.Point1.Data.StartVar, 
TestParameter, AutoAnalysis.Line1.Point1.Data.StartCondition, 
TestParameter, AutoAnalysis.Line1.Point2.Type, 0
TestParameter, AutoAnalysis.Line1.Point2.XY.X, 
TestParameter, AutoAnalysis.Line1.Point2.XY.Y, 
TestParameter, AutoAnalysis.Line1.Point2.Data.Var, 
TestParameter, AutoAnalysis.Line1.Point2.Data.Condition, 
TestParameter, AutoAnalysis.Line1.Point2.Data.Start, false
TestParameter, AutoAnalysis.Line1.Point2.Data.StartVar, 
TestParameter, AutoAnalysis.Line1.Point2.Data.StartCondition, 
TestParameter, AutoAnalysis.Line1.GradientExpr, 0
TestParameter, AutoAnalysis.Line2.Enabled, false
TestParameter, AutoAnalysis.Line2.Type, 1
TestParameter, AutoAnalysis.Line2.Fix, True
TestParameter, AutoAnalysis.Line2.YAxis, 0
TestParameter, AutoAnalysis.Line2.Point1.Type, 0
TestParameter, AutoAnalysis.Line2.Point1.XY.X, 
TestParameter, AutoAnalysis.Line2.Point1.XY.Y, 
TestParameter, AutoAnalysis.Line2.Point1.Data.Var, 
TestParameter, AutoAnalysis.Line2.Point1.Data.Condition, 
TestParameter, AutoAnalysis.Line2.Point1.Data.Start, false
TestParameter, AutoAnalysis.Line2.Point1.Data.StartVar, 
TestParameter, AutoAnalysis.Line2.Point1.Data.StartCondition, 
TestParameter, AutoAnalysis.Line2.Point2.Type, 0
TestParameter, AutoAnalysis.Line2.Point2.XY.X, 
TestParameter, AutoAnalysis.Line2.Point2.XY.Y, 
TestParameter, AutoAnalysis.Line2.Point2.Data.Var, 
TestParameter, AutoAnalysis.Line2.Point2.Data.Condition, 
TestParameter, AutoAnalysis.Line2.Point2.Data.Start, false
TestParameter, AutoAnalysis.Line2.Point2.Data.StartVar, 
TestParameter, AutoAnalysis.Line2.Point2.Data.StartCondition, 
TestParameter, AutoAnalysis.Line2.GradientExpr, 0
TestParameter, AutoAnalysis.Marker.Enabled, false
TestParameter, AutoAnalysis.Marker.Data.Var, 
TestParameter, AutoAnalysis.Marker.Data.Condition, 
TestParameter, AutoAnalysis.Marker.Data.Start, false
TestParameter, AutoAnalysis.Marker.Data.StartVar, 
TestParameter, AutoAnalysis.Marker.Data.StartCondition, 
MetaData, TestRecord.EntryPoint, true
MetaData, TestRecord.RecordTime, 10/06/2025 13:52:43
MetaData, TestRecord.TestTarget, E41-D17
MetaData, TestRecord.IterationIndex, 2
MetaData, TestRecord.Preservation, true
MetaData, TestRecord.Flag, 
MetaData, TestRecord.Remarks, 
MetaData, TestRecord.LinkKey, 80bffd89-df2e-4b1b-86e5-6b763a33c6fd
Dimension1, 402, 402, 402, 402, 402, 402, 402
Dimension2, 4, 4, 4, 4, 4, 4, 4
DataName, VTG, VD, Vbg, ID, IS, ITG, Ibg
DataValue, -2, 0.1, 0.5, 3.9689E-10, -3.9785000000000003E-10, -1.7100000000000002E-12, 6.9000000000000009E-12
DataValue, -1.985, 0.1, 0.5, 4.2350000000000004E-10, -4.295E-10, -1.21E-12, 5.7800000000000008E-12
DataValue, -1.9700000000000002, 0.1, 0.5, 4.3664000000000006E-10, -4.3625E-10, -4.2000000000000007E-12, 2.34E-12
DataValue, -1.955, 0.1, 0.5, 4.4659000000000006E-10, -4.4959000000000005E-10, -3.0400000000000004E-12, 6.14E-12
DataValue, -1.9400000000000002, 0.1, 0.5, 4.7469E-10, -4.7712E-10, -2.51E-12, 4.83E-12
DataValue, -1.925, 0.1, 0.5, 4.9688E-10, -4.992E-10, -4.42E-12, 4.6600000000000007E-12
DataValue, -1.9100000000000001, 0.1, 0.5, 5.158E-10, -5.1556E-10, 2.2000000000000002E-13, 2.79E-12
DataValue, -1.895, 0.1, 0.5, 5.2969000000000006E-10, -5.2449E-10, -2.64E-12, 2.4500000000000003E-12
DataValue, -1.8800000000000001, 0.1, 0.5, 5.4502E-10, -5.4544E-10, -2.9300000000000002E-12, 5.3100000000000006E-12
DataValue, -1.865, 0.1, 0.5, 5.395E-10, -5.4573E-10, -1.7600000000000002E-12, 4.41E-12
DataValue, -1.85, 0.1, 0.5, 5.6586E-10, -5.6413E-10, -4.3900000000000005E-12, 2.77E-12
DataValue, -1.8350000000000002, 0.1, 0.5, 5.6822E-10, -5.7374E-10, 7.7000000000000005E-13, 2.5300000000000003E-12
DataValue, -1.82, 0.1, 0.5, 5.9493E-10, -5.9147E-10, -1.85E-12, 1.32E-12
DataValue, -1.8050000000000002, 0.1, 0.5, 6.1305000000000007E-10, -6.177300000000001E-10, -2.2200000000000002E-12, 5.84E-12
DataValue, -1.79, 0.1, 0.5, 6.3273E-10, -6.307E-10, -1.4900000000000001E-12, 3.76E-12
DataValue, -1.7750000000000001, 0.1, 0.5, 6.5094E-10, -6.5206E-10, -3.65E-12, 1.2000000000000001E-12
DataValue, -1.76, 0.1, 0.5, 6.7997000000000008E-10, -6.7980000000000007E-10, 8.8000000000000009E-13, 1.8400000000000002E-12
DataValue, -1.745, 0.1, 0.5, 7.2023000000000011E-10, -7.1747E-10, -8E-13, 1.65E-12
DataValue, -1.73, 0.1, 0.5, 7.1767000000000007E-10, -7.2174E-10, -2.3200000000000002E-12, 4.83E-12
DataValue, -1.715, 0.1, 0.5, 7.3402E-10, -7.359700000000001E-10, -7.9000000000000007E-13, 1.91E-12
DataValue, -1.7000000000000002, 0.1, 0.5, 7.5759000000000007E-10, -7.4663E-10, -3.18E-12, 7.7000000000000005E-13
DataValue, -1.685, 0.1, 0.5, 7.8168E-10, -7.8195000000000008E-10, 8.4000000000000006E-13, 1.32E-12
DataValue, -1.6700000000000002, 0.1, 0.5, 8.0885000000000006E-10, -8.0327000000000006E-10, -1E-13, 2.29E-12
DataValue, -1.655, 0.1, 0.5, 7.9734000000000006E-10, -7.9655000000000011E-10, -2.2000000000000003E-12, 4.17E-12
DataValue, -1.6400000000000001, 0.1, 0.5, 8.253800000000001E-10, -8.2218E-10, 0, 2.3800000000000004E-12
DataValue, -1.625, 0.1, 0.5, 8.6444000000000007E-10, -8.6733E-10, -2.72E-12, -1.51E-12
DataValue, -1.61, 0.1, 0.5, 8.9274000000000006E-10, -8.9315000000000006E-10, 4E-13, 1.83E-12
DataValue, -1.595, 0.1, 0.5, 9.3285000000000014E-10, -9.418E-10, 1.2000000000000002E-13, 2.2500000000000003E-12
DataValue, -1.58, 0.1, 0.5, 9.7384E-10, -9.7378000000000013E-10, -2.08E-12, 4.1900000000000005E-12
DataValue, -1.5650000000000002, 0.1, 0.5, 1.00147E-09, -1.00386E-09, 1.09E-12, 2.06E-12
DataValue, -1.55, 0.1, 0.5, 1.02466E-09, -1.0150000000000001E-09, -2.31E-12, -2.4000000000000004E-13
DataValue, -1.5350000000000001, 0.1, 0.5, 1.06451E-09, -1.08223E-09, -7.2000000000000006E-13, 2.01E-12
DataValue, -1.52, 0.1, 0.5, 1.1176000000000002E-09, -1.1127100000000002E-09, 1E-13, 7E-13
DataValue, -1.5050000000000001, 0.1, 0.5, 1.129E-09, -1.0967E-09, -2.82E-12, 1.4E-13
DataValue, -1.49, 0.1, 0.5, 1.161E-09, -1.1589E-09, 1.0100000000000001E-12, -4.7E-13
DataValue, -1.475, 0.1, 0.5, 1.2144E-09, -1.2228E-09, -5.6E-13, -9.7000000000000011E-13
DataValue, -1.46, 0.1, 0.5, 1.258E-09, -1.2601E-09, -1.45E-12, 5.63E-12
DataValue, -1.445, 0.1, 0.5, 1.2942E-09, -1.2966E-09, -2.0000000000000003E-14, 1.9200000000000003E-12
DataValue, -1.4300000000000002, 0.1, 0.5, 1.3548E-09, -1.363E-09, -1.6300000000000001E-12, 2.7300000000000003E-12
DataValue, -1.415, 0.1, 0.5, 1.4037E-09, -1.3954E-09, 1.2400000000000002E-12, 6.9000000000000009E-13
DataValue, -1.4000000000000001, 0.1, 0.5, 1.4496E-09, -1.4303E-09, -2.52E-12, -6.6E-13
DataValue, -1.385, 0.1, 0.5, 1.4973E-09, -1.4974E-09, 1.2500000000000001E-12, 6.3E-13
DataValue, -1.37, 0.1, 0.5, 1.5332E-09, -1.5185E-09, -1.6000000000000003E-13, 3.2000000000000005E-13
DataValue, -1.355, 0.1, 0.5, 1.565E-09, -1.563E-09, -9.2000000000000012E-13, 4.3000000000000007E-12
DataValue, -1.34, 0.1, 0.5, 1.6443E-09, -1.6351E-09, 1E-13, 2.6600000000000004E-12
DataValue, -1.325, 0.1, 0.5, 1.6714E-09, -1.6693E-09, -1.3800000000000002E-12, 1.78E-12
DataValue, -1.31, 0.1, 0.5, 1.7648E-09, -1.7647E-09, 1.12E-12, 1.3300000000000002E-12
DataValue, -1.2950000000000002, 0.1, 0.5, 1.8246E-09, -1.825E-09, -2.7100000000000004E-12, -2.14E-12
DataValue, -1.28, 0.1, 0.5, 1.8971E-09, -1.8772E-09, 7.100000000000001E-13, -7E-13
DataValue, -1.2650000000000001, 0.1, 0.5, 1.9764E-09, -1.9435E-09, 1.7E-13, 5.5000000000000008E-13
DataValue, -1.25, 0.1, 0.5, 1.9963E-09, -1.993E-09, -1.1900000000000002E-12, 5.18E-12
DataValue, -1.235, 0.1, 0.5, 2.0993E-09, -2.0861E-09, 6.0000000000000007E-13, 2.5600000000000004E-12
DataValue, -1.22, 0.1, 0.5, 2.155E-09, -2.1913E-09, -1.04E-12, 6.2000000000000008E-13
DataValue, -1.205, 0.1, 0.5, 2.2758E-09, -2.2817E-09, 2.37E-12, -1.04E-12
DataValue, -1.19, 0.1, 0.5, 2.3244E-09, -2.3187E-09, -2.6600000000000004E-12, -1.9400000000000002E-12
DataValue, -1.175, 0.1, 0.5, 2.3828E-09, -2.3898E-09, 9.7000000000000011E-13, -3.3E-13
DataValue, -1.1600000000000001, 0.1, 0.5, 2.4683E-09, -2.4581E-09, -2.9000000000000003E-13, 9.2000000000000012E-13
DataValue, -1.145, 0.1, 0.5, 2.5268E-09, -2.5675E-09, -5.5000000000000008E-13, 4.0400000000000006E-12
DataValue, -1.1300000000000001, 0.1, 0.5, 2.6897E-09, -2.7084E-09, 8.7E-13, 1.7600000000000002E-12
DataValue, -1.115, 0.1, 0.5, 2.7967E-09, -2.8067E-09, -7.7000000000000005E-13, 1E-12
DataValue, -1.1, 0.1, 0.5, 2.8863E-09, -2.8822E-09, 2.11E-12, -9.000000000000001E-13
DataValue, -1.085, 0.1, 0.5, 3.0048E-09, -2.998E-09, -3.18E-12, -1.69E-12
DataValue, -1.07, 0.1, 0.5, 3.06E-09, -3.0696E-09, 6.2000000000000008E-13, -3.0000000000000003E-13
DataValue, -1.0550000000000002, 0.1, 0.5, 3.1329E-09, -3.1325E-09, 4.9E-13, 2.9000000000000003E-13
DataValue, -1.04, 0.1, 0.5, 3.2393E-09, -3.2421E-09, 1.3E-13, 4.56E-12
DataValue, -1.0250000000000001, 0.1, 0.5, 3.4404E-09, -3.4206E-09, 1.31E-12, 2.8900000000000004E-12
DataValue, -1.01, 0.1, 0.5, 3.5728E-09, -3.5822E-09, -3.4E-13, 1.18E-12
DataValue, -0.995, 0.1, 0.5, 3.698E-09, -3.6982E-09, 2.44E-12, -8.0000000000000013E-14
DataValue, -0.98000000000000009, 0.1, 0.5, 3.8104E-09, -3.8012E-09, -2.9300000000000002E-12, -1.91E-12
DataValue, -0.96500000000000008, 0.1, 0.5, 3.9358E-09, -3.9162E-09, -6.0000000000000009E-14, -3.1000000000000004E-13
DataValue, -0.95000000000000007, 0.1, 0.5, 4.1026E-09, -4.0861E-09, 3.5E-13, 2.2000000000000002E-13
DataValue, -0.935, 0.1, 0.5, 4.2546E-09, -4.2856E-09, -2.8E-13, 5.23E-12
DataValue, -0.92, 0.1, 0.5, 4.4228E-09, -4.4784E-09, 1.88E-12, 2.9100000000000003E-12
DataValue, -0.905, 0.1, 0.5, 4.6126E-09, -4.5871E-09, -8.4000000000000006E-13, 5.8000000000000005E-13
DataValue, -0.89, 0.1, 0.5, 4.7765E-09, -4.7531E-09, 1.9200000000000003E-12, -1.4200000000000002E-12
DataValue, -0.875, 0.1, 0.5, 5.0705E-09, -5.1216E-09, -3.1400000000000004E-12, -2.01E-12
DataValue, -0.86, 0.1, 0.5, 5.2068E-09, -5.2434E-09, 3.2000000000000005E-13, -9.0000000000000008E-14
DataValue, -0.84500000000000008, 0.1, 0.5, 5.4554E-09, -5.4942E-09, 4.3000000000000004E-13, 5.9E-13
DataValue, -0.83000000000000007, 0.1, 0.5, 5.6986E-09, -5.6957E-09, -1.7E-13, 5.1700000000000008E-12
DataValue, -0.81500000000000006, 0.1, 0.5, 5.8942E-09, -5.9198E-09, 2.16E-12, 2.2700000000000002E-12
DataValue, -0.8, 0.1, 0.5, 6.0973E-09, -6.0899E-09, -1.6000000000000003E-13, 1.4400000000000001E-12
DataValue, -0.785, 0.1, 0.5, 6.265E-09, -6.2557E-09, 2.6100000000000004E-12, -4.4000000000000004E-13
DataValue, -0.77, 0.1, 0.5, 6.4791E-09, -6.4858E-09, -2.9100000000000003E-12, -2.47E-12
DataValue, -0.755, 0.1, 0.5, 6.7521E-09, -6.7406E-09, 3.0000000000000005E-14, -5.5000000000000008E-13
DataValue, -0.74, 0.1, 0.5, 6.9955E-09, -7.0403E-09, 4.7E-13, 1.9900000000000002E-12
DataValue, -0.72500000000000009, 0.1, 0.5, 7.3406E-09, -7.2976E-09, 8.1000000000000008E-13, 4.03E-12
DataValue, -0.71000000000000008, 0.1, 0.5, 7.5989E-09, -7.5542E-09, 2.3800000000000004E-12, 3.0300000000000002E-12
DataValue, -0.69500000000000006, 0.1, 0.5, 7.7398E-09, -7.7456E-09, 4.9E-13, 8.300000000000001E-13
DataValue, -0.68, 0.1, 0.5, 8.0323E-09, -8.0046E-09, 8.9E-13, -1.09E-12
DataValue, -0.665, 0.1, 0.5, 8.4715E-09, -8.5148E-09, -3.67E-12, -2.6800000000000003E-12
DataValue, -0.65, 0.1, 0.5, 8.8092E-09, -8.79E-09, -1.7200000000000001E-12, -8.8000000000000009E-13
DataValue, -0.635, 0.1, 0.5, 9.2429E-09, -9.2584E-09, 6.7000000000000007E-13, 7.4000000000000008E-13
DataValue, -0.62, 0.1, 0.5, 9.6761E-09, -9.638E-09, -1.6000000000000003E-13, 4.3500000000000006E-12
DataValue, -0.605, 0.1, 0.5, 9.9342E-09, -9.9547E-09, 2.21E-12, 9.8E-13
DataValue, -0.59000000000000008, 0.1, 0.5, 1.03004E-08, -1.03069E-08, -3.0000000000000003E-13, -6.1E-13
DataValue, -0.57500000000000007, 0.1, 0.5, 1.08239E-08, -1.08871E-08, 1.59E-12, -1.4900000000000001E-12
DataValue, -0.56, 0.1, 0.5, 1.11237E-08, -1.10843E-08, -2.39E-12, -3.1E-12
DataValue, -0.545, 0.1, 0.5, 1.14196E-08, -1.14649E-08, 4.0000000000000006E-14, 2.14E-12
DataValue, -0.53, 0.1, 0.5, 1.1897599999999998E-08, -1.1844799999999999E-08, 8.0000000000000013E-14, 4.41E-12
DataValue, -0.515, 0.1, 0.5, 1.20658E-08, -1.22092E-08, -2.11E-12, -9.4E-13
DataValue, -0.5, 0.1, 0.5, 1.26288E-08, -1.2667799999999999E-08, 4.7E-13, 2.62E-12
DataValue, -0.48500000000000004, 0.1, 0.5, 1.3194799999999999E-08, -1.3139199999999999E-08, 2.7600000000000004E-12, 8.5000000000000011E-13
DataValue, -0.47000000000000003, 0.1, 0.5, 1.3752799999999998E-08, -1.3704399999999998E-08, 3.2000000000000005E-13, 5.6E-13
DataValue, -0.455, 0.1, 0.5, 1.4232799999999998E-08, -1.4213599999999999E-08, -2E-13, 1.04E-12
DataValue, -0.44, 0.1, 0.5, 1.4731599999999999E-08, -1.4644999999999998E-08, -9.000000000000001E-13, -1.9700000000000003E-12
DataValue, -0.42500000000000004, 0.1, 0.5, 1.5251399999999997E-08, -1.5205399999999998E-08, 1.69E-12, 1.1100000000000001E-12
DataValue, -0.41000000000000003, 0.1, 0.5, 1.5815199999999997E-08, -1.5748999999999998E-08, 6.9000000000000009E-13, -2.01E-12
DataValue, -0.395, 0.1, 0.5, 1.64418E-08, -1.6426599999999997E-08, 2.5E-13, 5.3200000000000008E-12
DataValue, -0.38, 0.1, 0.5, 1.6855599999999997E-08, -1.68456E-08, -3.4000000000000005E-12, -3.5700000000000003E-12
DataValue, -0.365, 0.1, 0.5, 1.7472999999999997E-08, -1.74796E-08, 1.12E-12, 1.9900000000000002E-12
DataValue, -0.35000000000000003, 0.1, 0.5, 1.8024399999999998E-08, -1.8091E-08, 2.9600000000000003E-12, -3.5E-13
DataValue, -0.335, 0.1, 0.5, 1.88176E-08, -1.8706999999999997E-08, -6.400000000000001E-13, 2.1200000000000003E-12
DataValue, -0.32, 0.1, 0.5, 1.94412E-08, -1.9343199999999997E-08, -4.1E-13, -2.6E-13
DataValue, -0.305, 0.1, 0.5, 2.01434E-08, -1.99684E-08, -7.7000000000000005E-13, -1.55E-12
DataValue, -0.29000000000000004, 0.1, 0.5, 2.0599599999999997E-08, -2.06938E-08, 2.8900000000000004E-12, 8.2E-13
DataValue, -0.275, 0.1, 0.5, 2.1356E-08, -2.1409999999999998E-08, -2.4000000000000004E-13, -2.3500000000000003E-12
DataValue, -0.26, 0.1, 0.5, 2.2301399999999997E-08, -2.2126E-08, 8.5000000000000011E-13, 4E-12
DataValue, -0.24500000000000002, 0.1, 0.5, 2.2923399999999998E-08, -2.3078799999999997E-08, -2.75E-12, -4.2900000000000005E-12
DataValue, -0.23, 0.1, 0.5, 2.3813399999999998E-08, -2.3828999999999998E-08, 1.6700000000000002E-12, 2.39E-12
DataValue, -0.215, 0.1, 0.5, 2.4443199999999997E-08, -2.437E-08, 1.5E-12, -1.5800000000000001E-12
DataValue, -0.2, 0.1, 0.5, 2.5318599999999998E-08, -2.5210599999999998E-08, 2.5E-13, 5.28E-12
DataValue, -0.185, 0.1, 0.5, 2.5785E-08, -2.5705599999999997E-08, -1.3500000000000001E-12, -1.86E-12
DataValue, -0.17, 0.1, 0.5, 2.6836999999999997E-08, -2.6809399999999997E-08, 9.3E-13, -1.2900000000000002E-12
DataValue, -0.155, 0.1, 0.5, 2.7498199999999997E-08, -2.76916E-08, 3.4000000000000005E-12, -4.1E-13
DataValue, -0.14, 0.1, 0.5, 2.8501399999999997E-08, -2.8290399999999996E-08, -5.5000000000000008E-13, 1.74E-12
DataValue, -0.125, 0.1, 0.5, 2.9444199999999996E-08, -2.9415999999999997E-08, 3.8000000000000005E-13, 5.3000000000000006E-13
DataValue, -0.11, 0.1, 0.5, 3.0366599999999995E-08, -3.0282399999999995E-08, -2.3000000000000003E-12, -1.7100000000000002E-12
DataValue, -0.095, 0.1, 0.5, 3.13746E-08, -3.12008E-08, 2.51E-12, 3.1E-12
DataValue, -0.08, 0.1, 0.5, 3.22464E-08, -3.22114E-08, 1.18E-12, -2.5500000000000002E-12
DataValue, -0.065, 0.1, 0.5, 3.3078E-08, -3.30824E-08, 9.5E-13, 4.22E-12
DataValue, -0.05, 0.1, 0.5, 3.4239399999999995E-08, -3.4193399999999996E-08, -2.8300000000000003E-12, -3.25E-12
DataValue, -0.035, 0.1, 0.5, 3.54816E-08, -3.5178999999999994E-08, 1.27E-12, 1.02E-12
DataValue, -0.02, 0.1, 0.5, 3.61346E-08, -3.62106E-08, 2.4300000000000003E-12, -1.5600000000000002E-12
DataValue, -0.005, 0.1, 0.5, 3.7413799999999996E-08, -3.7564799999999995E-08, -2.9000000000000003E-13, 1.73E-12
DataValue, 0.01, 0.1, 0.5, 3.83076E-08, -3.8231999999999995E-08, 2.9000000000000003E-13, -7E-13
DataValue, 0.025, 0.1, 0.5, 3.94358E-08, -3.94666E-08, -3.0000000000000003E-13, -1.0500000000000002E-12
DataValue, 0.04, 0.1, 0.5, 4.04646E-08, -4.03984E-08, 2.2200000000000002E-12, 6.1E-13
