
SetupTitle, ExfoliatedMoS2_TGIdVg
PrimitiveTest, I/V Sweep
TestParameter, Context.MainFrame, B1500A
TestParameter, Channel.UnitType, SMU, SMU, SMU, SMU
TestParameter, Channel.Unit, SMU4:HR, SMU1:HR, SMU2:HR, SMU3:HR
TestParameter, Channel.IName, ID, IS, ITG, Ibg
TestParameter, Channel.VName, VD, VS, VTG, Vbg
TestParameter, Channel.Mode, V, COMMON, V, V
TestParameter, Channel.Func, VAR2, CONST, VAR1, CONST
TestParameter, Channel.Index, 
TestParameter, Channel.Time, 
TestParameter, Measurement.Port.Unit, SMU4:HR, SMU1:HR, SMU2:HR, SMU3:HR
TestParameter, Measurement.Port.SeriesResistor, NONE, NONE, NONE, NONE
TestParameter, Measurement.Port.Filter, ON, ON, ON, ON
TestParameter, Measurement.Port.OutputVoltageComparison, 0, 0, 0, 0
TestParameter, Measurement.Primary.Locus, Double
TestParameter, Measurement.Primary.Scale, LINEAR
TestParameter, Measurement.Primary.Start, -2
TestParameter, Measurement.Primary.Stop, 1
TestParameter, Measurement.Primary.Step, 0.015000000000000001
TestParameter, Measurement.Primary.Compliance, 0.005
TestParameter, Measurement.Primary.PowerCompliance, 0
TestParameter, Measurement.Aborting.Condition, CONTINUE AT ANY
TestParameter, Measurement.PostOutput.Value, START
TestParameter, Measurement.PostOutput.Retention, OFF
TestParameter, Measurement.Secondary.Start, 0.1
TestParameter, Measurement.Secondary.Count, 4
TestParameter, Measurement.Secondary.Step, 0.3
TestParameter, Measurement.Secondary.Compliance, 0.005
TestParameter, Measurement.Secondary.PowerCompliance, 0
TestParameter, Measurement.Bias.Source, 0.1, 0, -2, 0.5
TestParameter, Measurement.Bias.Compliance, 0.005, 0.1, 0.005, 0.1
TestParameter, Measurement.Monitor.Unit, SMU4:HR, SMU1:HR, SMU2:HR, SMU3:HR
TestParameter, Measurement.Monitor.Adc, HR ADC, HR ADC, HR ADC, HR ADC
TestParameter, Measurement.Monitor.Measurement, Compliance Side, Compliance Side, Compliance Side, Compliance Side
TestParameter, Measurement.Monitor.RangingMode, LIMITED, LIMITED, LIMITED, LIMITED
TestParameter, Measurement.Monitor.RangeBoundary, 1nA, 1nA, 1nA, 1nA
TestParameter, Measurement.Monitor.RangeRating, BY FULL RANGE, BY FULL RANGE, BY FULL RANGE, BY FULL RANGE
TestParameter, Measurement.Monitor.RangeRatingCoeff, 50, 50, 50, 50
TestParameter, Measurement.Timing.Hold, 0
TestParameter, Measurement.Timing.Delay, 0
TestParameter, Measurement.Adc.HighSpeed.Mode, AUTO
TestParameter, Measurement.Adc.HighSpeed.Coeff, 1
TestParameter, Measurement.Adc.HighResolution.AutoZero, OFF
TestParameter, Measurement.Adc.HighResolution.Mode, AUTO
TestParameter, Measurement.Adc.HighResolution.Coeff, 6
TestParameter, Measurement.WaitTime.Source.Coeff, 1
TestParameter, Measurement.WaitTime.Source.Offset, 0
TestParameter, Measurement.WaitTime.Monitor.Coeff, 1
TestParameter, Measurement.WaitTime.Monitor.Offset, 0
TestParameter, Output.Graph.Enabled, true
TestParameter, Output.Graph.AutoScaling, false
TestParameter, Output.Graph.XAxis.Data, VTG
TestParameter, Output.Graph.XAxis.Scale, Linear
TestParameter, Output.Graph.XAxis.Left, -1
TestParameter, Output.Graph.XAxis.Right, 1
TestParameter, Output.Graph.XAxis.RunTimeAutoScale, false
TestParameter, Output.Graph.YAxis.Data, ID, ITG
TestParameter, Output.Graph.YAxis.Scale, Linear, Linear
TestParameter, Output.Graph.YAxis.Bottom, -0.1, -0.001
TestParameter, Output.Graph.YAxis.Top, 0.1, 0.001
TestParameter, Output.Graph.YAxis.Group, , 
TestParameter, Output.Graph.YAxis.RunTimeAutoScale, true, false
TestParameter, Output.List.Data, VTG, ID, VD, Vbg, Ibg, ITG, IS
TestParameter, AutoAnalysis.Interpolation, false
TestParameter, AutoAnalysis.Line1.Enabled, false
TestParameter, AutoAnalysis.Line1.Type, 1
TestParameter, AutoAnalysis.Line1.Fix, True
TestParameter, AutoAnalysis.Line1.YAxis, 0
TestParameter, AutoAnalysis.Line1.Point1.Type, 0
TestParameter, AutoAnalysis.Line1.Point1.XY.X, 
TestParameter, AutoAnalysis.Line1.Point1.XY.Y, 
TestParameter, AutoAnalysis.Line1.Point1.Data.Var, 
TestParameter, AutoAnalysis.Line1.Point1.Data.Condition, 
TestParameter, AutoAnalysis.Line1.Point1.Data.Start, false
TestParameter, AutoAnalysis.Line1.Point1.Data.StartVar, 
TestParameter, AutoAnalysis.Line1.Point1.Data.StartCondition, 
TestParameter, AutoAnalysis.Line1.Point2.Type, 0
TestParameter, AutoAnalysis.Line1.Point2.XY.X, 
TestParameter, AutoAnalysis.Line1.Point2.XY.Y, 
TestParameter, AutoAnalysis.Line1.Point2.Data.Var, 
TestParameter, AutoAnalysis.Line1.Point2.Data.Condition, 
TestParameter, AutoAnalysis.Line1.Point2.Data.Start, false
TestParameter, AutoAnalysis.Line1.Point2.Data.StartVar, 
TestParameter, AutoAnalysis.Line1.Point2.Data.StartCondition, 
TestParameter, AutoAnalysis.Line1.GradientExpr, 0
TestParameter, AutoAnalysis.Line2.Enabled, false
TestParameter, AutoAnalysis.Line2.Type, 1
TestParameter, AutoAnalysis.Line2.Fix, True
TestParameter, AutoAnalysis.Line2.YAxis, 0
TestParameter, AutoAnalysis.Line2.Point1.Type, 0
TestParameter, AutoAnalysis.Line2.Point1.XY.X, 
TestParameter, AutoAnalysis.Line2.Point1.XY.Y, 
TestParameter, AutoAnalysis.Line2.Point1.Data.Var, 
TestParameter, AutoAnalysis.Line2.Point1.Data.Condition, 
TestParameter, AutoAnalysis.Line2.Point1.Data.Start, false
TestParameter, AutoAnalysis.Line2.Point1.Data.StartVar, 
TestParameter, AutoAnalysis.Line2.Point1.Data.StartCondition, 
TestParameter, AutoAnalysis.Line2.Point2.Type, 0
TestParameter, AutoAnalysis.Line2.Point2.XY.X, 
TestParameter, AutoAnalysis.Line2.Point2.XY.Y, 
TestParameter, AutoAnalysis.Line2.Point2.Data.Var, 
TestParameter, AutoAnalysis.Line2.Point2.Data.Condition, 
TestParameter, AutoAnalysis.Line2.Point2.Data.Start, false
TestParameter, AutoAnalysis.Line2.Point2.Data.StartVar, 
TestParameter, AutoAnalysis.Line2.Point2.Data.StartCondition, 
TestParameter, AutoAnalysis.Line2.GradientExpr, 0
TestParameter, AutoAnalysis.Marker.Enabled, false
TestParameter, AutoAnalysis.Marker.Data.Var, 
TestParameter, AutoAnalysis.Marker.Data.Condition, 
TestParameter, AutoAnalysis.Marker.Data.Start, false
TestParameter, AutoAnalysis.Marker.Data.StartVar, 
TestParameter, AutoAnalysis.Marker.Data.StartCondition, 
MetaData, TestRecord.EntryPoint, true
MetaData, TestRecord.RecordTime, 10/06/2025 13:47:41
MetaData, TestRecord.TestTarget, E41-D14
MetaData, TestRecord.IterationIndex, 8
MetaData, TestRecord.Preservation, true
MetaData, TestRecord.Flag, 
MetaData, TestRecord.Remarks, 
MetaData, TestRecord.LinkKey, 9873b544-e103-4822-9831-497414276197
Dimension1, 402, 402, 402, 402, 402, 402, 402
Dimension2, 4, 4, 4, 4, 4, 4, 4
DataName, VTG, VD, Vbg, ID, IS, ITG, Ibg
DataValue, -2, 0.1, 0.5, 6.3512000000000008E-10, -6.3609E-10, -5.33E-12, 6.5700000000000005E-12
DataValue, -1.985, 0.1, 0.5, 6.7601E-10, -6.7477E-10, -4.78E-12, 3.4100000000000002E-12
DataValue, -1.9700000000000002, 0.1, 0.5, 6.7623000000000005E-10, -6.8438000000000007E-10, -1.46E-12, 3.5200000000000003E-12
DataValue, -1.955, 0.1, 0.5, 7.0447E-10, -7.071400000000001E-10, -2.6000000000000002E-12, 6E-12
DataValue, -1.9400000000000002, 0.1, 0.5, 7.3373E-10, -7.3242E-10, -2.92E-12, 7.360000000000001E-12
DataValue, -1.925, 0.1, 0.5, 7.3151000000000009E-10, -7.2718000000000007E-10, -2.7000000000000002E-12, 4.9100000000000007E-12
DataValue, -1.9100000000000001, 0.1, 0.5, 7.3498000000000008E-10, -7.4051000000000006E-10, -3.5700000000000003E-12, 8.9E-13
DataValue, -1.895, 0.1, 0.5, 7.6686000000000008E-10, -7.7402000000000008E-10, -8.7E-13, 2.44E-12
DataValue, -1.8800000000000001, 0.1, 0.5, 7.6876E-10, -7.7493E-10, -2.0500000000000004E-12, 4.7000000000000006E-12
DataValue, -1.865, 0.1, 0.5, 7.9633000000000008E-10, -7.9365E-10, -2.39E-12, 6.1800000000000007E-12
DataValue, -1.85, 0.1, 0.5, 8.1702E-10, -8.2010000000000009E-10, -2.0700000000000003E-12, 3.3E-13
DataValue, -1.8350000000000002, 0.1, 0.5, 8.2788E-10, -8.2927000000000007E-10, -3.0800000000000002E-12, -2.9000000000000003E-13
DataValue, -1.82, 0.1, 0.5, 8.307800000000001E-10, -8.4134000000000012E-10, -5.3000000000000006E-13, 2.6000000000000002E-12
DataValue, -1.8050000000000002, 0.1, 0.5, 8.412300000000001E-10, -8.4506000000000008E-10, -1.37E-12, 5.1000000000000005E-12
DataValue, -1.79, 0.1, 0.5, 8.6705E-10, -8.6001000000000011E-10, -2.3200000000000002E-12, 4.16E-12
DataValue, -1.7750000000000001, 0.1, 0.5, 8.9515000000000006E-10, -8.9202000000000009E-10, -1.07E-12, -1.0000000000000002E-14
DataValue, -1.76, 0.1, 0.5, 9.086300000000001E-10, -9.0616000000000011E-10, -3.13E-12, 1.3E-13
DataValue, -1.745, 0.1, 0.5, 9.2960000000000008E-10, -9.1875000000000006E-10, -9.5E-13, 4.5400000000000004E-12
DataValue, -1.73, 0.1, 0.5, 9.5406000000000012E-10, -9.4733E-10, -1.2900000000000002E-12, 4.46E-12
DataValue, -1.715, 0.1, 0.5, 9.7297E-10, -9.7331E-10, -1.78E-12, 2.6000000000000002E-12
DataValue, -1.7000000000000002, 0.1, 0.5, 9.951E-10, -9.9168E-10, -3.7000000000000004E-13, -3.0000000000000005E-14
DataValue, -1.685, 0.1, 0.5, 1.0118000000000002E-09, -1.0072400000000001E-09, -2.3300000000000004E-12, 6.6E-13
DataValue, -1.6700000000000002, 0.1, 0.5, 1.04368E-09, -1.0461200000000001E-09, -6.6E-13, 4E-12
DataValue, -1.655, 0.1, 0.5, 1.06443E-09, -1.0575300000000002E-09, -8.1000000000000008E-13, 3.2700000000000004E-12
DataValue, -1.6400000000000001, 0.1, 0.5, 1.0715600000000002E-09, -1.0768400000000002E-09, -1.8000000000000002E-12, 1.17E-12
DataValue, -1.625, 0.1, 0.5, 1.1088700000000001E-09, -1.10476E-09, 5.7E-13, -5.2E-13
DataValue, -1.61, 0.1, 0.5, 1.11595E-09, -1.1191700000000002E-09, -1.6200000000000002E-12, 6.2000000000000008E-13
DataValue, -1.595, 0.1, 0.5, 1.1659E-09, -1.1518E-09, -5E-13, 4.11E-12
DataValue, -1.58, 0.1, 0.5, 1.1603E-09, -1.1561E-09, -7.9000000000000007E-13, 4.37E-12
DataValue, -1.5650000000000002, 0.1, 0.5, 1.2118E-09, -1.208E-09, -9.000000000000001E-13, 3.1900000000000003E-12
DataValue, -1.55, 0.1, 0.5, 1.21E-09, -1.1964E-09, -4.4000000000000004E-13, 1.3900000000000001E-12
DataValue, -1.5350000000000001, 0.1, 0.5, 1.2533E-09, -1.2684E-09, -1.93E-12, -2.47E-12
DataValue, -1.52, 0.1, 0.5, 1.2966E-09, -1.2992E-09, 7.3E-13, -2.0700000000000003E-12
DataValue, -1.5050000000000001, 0.1, 0.5, 1.3525E-09, -1.3425E-09, -1.5400000000000001E-12, 3.0000000000000005E-14
DataValue, -1.49, 0.1, 0.5, 1.3627E-09, -1.3685E-09, 7E-14, 4.0500000000000007E-12
DataValue, -1.475, 0.1, 0.5, 1.3931E-09, -1.3899E-09, -1.9000000000000002E-13, 3.85E-12
DataValue, -1.46, 0.1, 0.5, 1.4122E-09, -1.4272E-09, -5.7E-13, 3.0600000000000003E-12
DataValue, -1.445, 0.1, 0.5, 1.4278E-09, -1.4207E-09, -5E-13, 5.7E-13
DataValue, -1.4300000000000002, 0.1, 0.5, 1.4492E-09, -1.44E-09, -1.73E-12, -2.21E-12
DataValue, -1.415, 0.1, 0.5, 1.4824E-09, -1.4903E-09, 8.7E-13, -1.64E-12
DataValue, -1.4000000000000001, 0.1, 0.5, 1.5483E-09, -1.5501E-09, -1.4300000000000002E-12, 2.47E-12
DataValue, -1.385, 0.1, 0.5, 1.5922E-09, -1.5913E-09, 8.0000000000000013E-14, 4.1000000000000007E-12
DataValue, -1.37, 0.1, 0.5, 1.6469E-09, -1.6408E-09, 3.9000000000000005E-13, 3.1900000000000003E-12
DataValue, -1.355, 0.1, 0.5, 1.7062E-09, -1.7144E-09, -2.3000000000000003E-13, 3.4500000000000004E-12
DataValue, -1.34, 0.1, 0.5, 1.7355E-09, -1.7176E-09, 0, 8.8000000000000009E-13
DataValue, -1.325, 0.1, 0.5, 1.7601E-09, -1.747E-09, -1.59E-12, -1.17E-12
DataValue, -1.31, 0.1, 0.5, 1.7864E-09, -1.7978E-09, 6.5000000000000006E-13, -1.6700000000000002E-12
DataValue, -1.2950000000000002, 0.1, 0.5, 1.834E-09, -1.8404E-09, -1.4700000000000002E-12, 1.1100000000000001E-12
DataValue, -1.28, 0.1, 0.5, 1.9059E-09, -1.9176E-09, -1.0000000000000002E-14, 3.75E-12
DataValue, -1.2650000000000001, 0.1, 0.5, 1.9435E-09, -1.9181E-09, 4.4000000000000004E-13, 2.8100000000000003E-12
DataValue, -1.25, 0.1, 0.5, 1.9992E-09, -1.9931E-09, 5E-14, 3.6900000000000006E-12
DataValue, -1.235, 0.1, 0.5, 2.0553E-09, -2.0487E-09, 1.5000000000000002E-13, 1.4400000000000001E-12
DataValue, -1.22, 0.1, 0.5, 2.1112E-09, -2.0956E-09, -1.51E-12, -2.18E-12
DataValue, -1.205, 0.1, 0.5, 2.1613E-09, -2.1428E-09, 8.4000000000000006E-13, -2.9400000000000004E-12
DataValue, -1.19, 0.1, 0.5, 2.2007E-09, -2.2126E-09, -1.32E-12, 6.5000000000000006E-13
DataValue, -1.175, 0.1, 0.5, 2.2434E-09, -2.2616E-09, 2.1000000000000001E-13, 2.47E-12
DataValue, -1.1600000000000001, 0.1, 0.5, 2.3151E-09, -2.3057E-09, 6.1E-13, 1.59E-12
DataValue, -1.145, 0.1, 0.5, 2.392E-09, -2.3799E-09, 4.2000000000000003E-13, 3.2400000000000003E-12
DataValue, -1.1300000000000001, 0.1, 0.5, 2.4883E-09, -2.4897E-09, 4.2000000000000003E-13, 3.0000000000000003E-13
DataValue, -1.115, 0.1, 0.5, 2.4938E-09, -2.4896E-09, -1.5300000000000001E-12, -1.96E-12
DataValue, -1.1, 0.1, 0.5, 2.6152E-09, -2.6201E-09, 5.1E-13, -1.4200000000000002E-12
DataValue, -1.085, 0.1, 0.5, 2.6276E-09, -2.6138E-09, -1.7200000000000001E-12, -2.2700000000000002E-12
DataValue, -1.07, 0.1, 0.5, 2.7037E-09, -2.7156E-09, 8.8000000000000009E-13, 1.2800000000000002E-12
DataValue, -1.0550000000000002, 0.1, 0.5, 2.7973E-09, -2.7994E-09, 1.1600000000000001E-12, 2.92E-12
DataValue, -1.04, 0.1, 0.5, 2.8839E-09, -2.8889E-09, 1.02E-12, 4.3000000000000007E-12
DataValue, -1.0250000000000001, 0.1, 0.5, 3.0077E-09, -2.9982E-09, 7.5E-13, 7.7000000000000005E-13
DataValue, -1.01, 0.1, 0.5, 3.0713E-09, -3.0714E-09, -9.6000000000000015E-13, -1.96E-12
DataValue, -0.995, 0.1, 0.5, 3.1262E-09, -3.1513E-09, 6.3E-13, -2.9400000000000004E-12
DataValue, -0.98000000000000009, 0.1, 0.5, 3.2759E-09, -3.277E-09, -2.04E-12, -2.4000000000000003E-12
DataValue, -0.96500000000000008, 0.1, 0.5, 3.3153E-09, -3.3046E-09, 6.3E-13, 1.6600000000000002E-12
DataValue, -0.95000000000000007, 0.1, 0.5, 3.3735E-09, -3.3514E-09, 9.1000000000000016E-13, 3.6200000000000003E-12
DataValue, -0.935, 0.1, 0.5, 3.5513E-09, -3.5622E-09, 8.4000000000000006E-13, 3.0400000000000004E-12
DataValue, -0.92, 0.1, 0.5, 3.6837E-09, -3.6762E-09, 8.2E-13, 1.1000000000000002E-12
DataValue, -0.905, 0.1, 0.5, 3.8011E-09, -3.8009E-09, -7.2000000000000006E-13, -2.0700000000000003E-12
DataValue, -0.89, 0.1, 0.5, 3.8797E-09, -3.8721E-09, 8.4000000000000006E-13, -3.67E-12
DataValue, -0.875, 0.1, 0.5, 4.0409E-09, -4.017E-09, -1.98E-12, -2.03E-12
DataValue, -0.86, 0.1, 0.5, 4.0819E-09, -4.071E-09, 7.4000000000000008E-13, 1.5800000000000001E-12
DataValue, -0.84500000000000008, 0.1, 0.5, 4.2237E-09, -4.2181E-09, 4E-13, 2.37E-12
DataValue, -0.83000000000000007, 0.1, 0.5, 4.3712E-09, -4.3559E-09, 1.1000000000000002E-12, 5.55E-12
DataValue, -0.81500000000000006, 0.1, 0.5, 4.5306E-09, -4.528E-09, 9.9E-13, 8.2E-13
DataValue, -0.8, 0.1, 0.5, 4.7042E-09, -4.6704E-09, 6.0000000000000009E-14, -4.2000000000000003E-13
DataValue, -0.785, 0.1, 0.5, 4.836E-09, -4.8387E-09, 7.4000000000000008E-13, -3.43E-12
DataValue, -0.77, 0.1, 0.5, 4.9408E-09, -4.9759E-09, -2.29E-12, -2.3500000000000003E-12
DataValue, -0.755, 0.1, 0.5, 5.0324E-09, -5.0679E-09, 7.7000000000000005E-13, 2.9000000000000003E-13
DataValue, -0.74, 0.1, 0.5, 5.2828E-09, -5.2814E-09, 5.7E-13, 1.03E-12
DataValue, -0.72500000000000009, 0.1, 0.5, 5.4775E-09, -5.4801E-09, 1.0600000000000001E-12, 6.7200000000000004E-12
DataValue, -0.71000000000000008, 0.1, 0.5, 5.7078E-09, -5.7152E-09, 1.36E-12, 1.5400000000000001E-12
DataValue, -0.69500000000000006, 0.1, 0.5, 5.9928E-09, -5.9351E-09, -5E-14, -2.0700000000000003E-12
DataValue, -0.68, 0.1, 0.5, 6.1403E-09, -6.1213E-09, 7.7000000000000005E-13, -1.5400000000000001E-12
DataValue, -0.665, 0.1, 0.5, 6.3888E-09, -6.3853E-09, -1.55E-12, -4.2400000000000005E-12
DataValue, -0.65, 0.1, 0.5, 6.6143E-09, -6.6617E-09, 8.5000000000000011E-13, -1.2800000000000002E-12
DataValue, -0.635, 0.1, 0.5, 6.845E-09, -6.8401E-09, 3.6000000000000003E-13, 9.8E-13
DataValue, -0.62, 0.1, 0.5, 7.1156E-09, -7.0885E-09, 1.09E-12, 4.79E-12
DataValue, -0.605, 0.1, 0.5, 7.3251E-09, -7.3306E-09, 1.36E-12, 2E-12
DataValue, -0.59000000000000008, 0.1, 0.5, 7.6128E-09, -7.6068E-09, 2.2000000000000002E-13, 1.1500000000000002E-12
DataValue, -0.57500000000000007, 0.1, 0.5, 7.8971E-09, -7.882E-09, 1.0600000000000001E-12, -3.0100000000000003E-12
DataValue, -0.56, 0.1, 0.5, 8.1966E-09, -8.2102E-09, -2.19E-12, -3.4400000000000003E-12
DataValue, -0.545, 0.1, 0.5, 8.4833E-09, -8.5122E-09, 6.9000000000000009E-13, -1.2500000000000001E-12
DataValue, -0.53, 0.1, 0.5, 8.8036E-09, -8.7828E-09, 9.0000000000000008E-14, 1.55E-12
DataValue, -0.515, 0.1, 0.5, 9.1623E-09, -9.1601E-09, 9.8E-13, 3.4500000000000004E-12
DataValue, -0.5, 0.1, 0.5, 9.5233E-09, -9.5418E-09, 1.5400000000000001E-12, 3.23E-12
DataValue, -0.48500000000000004, 0.1, 0.5, 9.9567E-09, -9.9203E-09, 8E-13, 3.1000000000000004E-13
DataValue, -0.47000000000000003, 0.1, 0.5, 1.03076E-08, -1.0266E-08, 7.9000000000000007E-13, -2.29E-12
DataValue, -0.455, 0.1, 0.5, 1.05454E-08, -1.05382E-08, -1.6200000000000002E-12, -2.5800000000000003E-12
DataValue, -0.44, 0.1, 0.5, 1.09718E-08, -1.10069E-08, 9.8E-13, -2.7600000000000004E-12
DataValue, -0.42500000000000004, 0.1, 0.5, 1.13851E-08, -1.14133E-08, -3.1000000000000004E-13, 4.6000000000000006E-13
DataValue, -0.41000000000000003, 0.1, 0.5, 1.1639999999999999E-08, -1.1531599999999999E-08, 1.04E-12, 3.81E-12
DataValue, -0.395, 0.1, 0.5, 1.22028E-08, -1.2181399999999999E-08, -7.8000000000000011E-13, -3.0100000000000003E-12
DataValue, -0.38, 0.1, 0.5, 1.24966E-08, -1.2524399999999999E-08, 6.3E-13, 3.02E-12
DataValue, -0.365, 0.1, 0.5, 1.3121799999999999E-08, -1.30958E-08, 8.6000000000000007E-13, -6.9000000000000009E-13
DataValue, -0.35000000000000003, 0.1, 0.5, 1.3633599999999998E-08, -1.3658599999999998E-08, 8.300000000000001E-13, -6.6E-13
DataValue, -0.335, 0.1, 0.5, 1.4045199999999999E-08, -1.4118599999999999E-08, 8.1000000000000008E-13, 2.5800000000000003E-12
DataValue, -0.32, 0.1, 0.5, 1.4643999999999999E-08, -1.4532399999999999E-08, -2.14E-12, -2.3300000000000004E-12
DataValue, -0.305, 0.1, 0.5, 1.52556E-08, -1.5239599999999998E-08, 1.59E-12, 2.64E-12
DataValue, -0.29000000000000004, 0.1, 0.5, 1.5696799999999997E-08, -1.5671E-08, 4.5000000000000005E-13, -3.0800000000000002E-12
DataValue, -0.275, 0.1, 0.5, 1.62758E-08, -1.61948E-08, 1.3300000000000002E-12, 5.1700000000000008E-12
DataValue, -0.26, 0.1, 0.5, 1.66132E-08, -1.6615799999999997E-08, -1.5400000000000001E-12, -2.08E-12
DataValue, -0.24500000000000002, 0.1, 0.5, 1.7386599999999997E-08, -1.72082E-08, 1.14E-12, 2.3200000000000002E-12
DataValue, -0.23, 0.1, 0.5, 1.79756E-08, -1.7980399999999998E-08, 7.2000000000000006E-13, -2.77E-12
DataValue, -0.215, 0.1, 0.5, 1.87686E-08, -1.8843999999999997E-08, 9.000000000000001E-13, 1E-12
DataValue, -0.2, 0.1, 0.5, 1.9413799999999997E-08, -1.9446599999999997E-08, 1.13E-12, -7.4000000000000008E-13
DataValue, -0.185, 0.1, 0.5, 2.0409599999999997E-08, -2.03104E-08, -1.5800000000000001E-12, -1.21E-12
DataValue, -0.17, 0.1, 0.5, 2.1092599999999997E-08, -2.1014999999999997E-08, 2.11E-12, 2.82E-12
DataValue, -0.155, 0.1, 0.5, 2.1890399999999998E-08, -2.1823999999999997E-08, 6.400000000000001E-13, -3.9E-12
DataValue, -0.14, 0.1, 0.5, 2.2670599999999997E-08, -2.2765E-08, 1.8900000000000002E-12, 4.51E-12
DataValue, -0.125, 0.1, 0.5, 2.3506199999999996E-08, -2.3417799999999997E-08, -2.24E-12, -3.4100000000000002E-12
DataValue, -0.11, 0.1, 0.5, 2.4496199999999997E-08, -2.43602E-08, 1.26E-12, 2.59E-12
DataValue, -0.095, 0.1, 0.5, 2.5236399999999997E-08, -2.5312399999999997E-08, 9.1000000000000016E-13, -2.3200000000000002E-12
DataValue, -0.08, 0.1, 0.5, 2.5905799999999996E-08, -2.5826E-08, 7.8000000000000011E-13, 3.6000000000000004E-12
DataValue, -0.065, 0.1, 0.5, 2.6941999999999997E-08, -2.6864199999999996E-08, 4.1E-13, -3.2000000000000005E-13
DataValue, -0.05, 0.1, 0.5, 2.7791199999999998E-08, -2.77064E-08, -1.1000000000000002E-12, -1.8400000000000002E-12
DataValue, -0.035, 0.1, 0.5, 2.8957999999999997E-08, -2.8936199999999996E-08, 2.0500000000000004E-12, 1.5400000000000001E-12
DataValue, -0.02, 0.1, 0.5, 3.0082799999999995E-08, -3.0122E-08, 1.1600000000000001E-12, -3.07E-12
DataValue, -0.005, 0.1, 0.5, 3.0824399999999994E-08, -3.0841E-08, 1.8100000000000002E-12, 4.46E-12
DataValue, 0.01, 0.1, 0.5, 3.20212E-08, -3.20106E-08, -2.0700000000000003E-12, -4.0900000000000005E-12
