
SetupTitle, ExfoliatedMoS2_TGIdVg
PrimitiveTest, I/V Sweep
TestParameter, Context.MainFrame, B1500A
TestParameter, Channel.UnitType, SMU, SMU, SMU, SMU
TestParameter, Channel.Unit, SMU2:HR, SMU1:HR, SMU4:HR, SMU3:HR
TestParameter, Channel.IName, ID, IS, ITG, Ibg
TestParameter, Channel.VName, VD, VS, VTG, Vbg
TestParameter, Channel.Mode, V, COMMON, V, V
TestParameter, Channel.Func, VAR2, CONST, VAR1, CONST
TestParameter, Channel.Index, 
TestParameter, Channel.Time, 
TestParameter, Measurement.Port.Unit, SMU2:HR, SMU1:HR, SMU4:HR, SMU3:HR
TestParameter, Measurement.Port.SeriesResistor, NONE, NONE, NONE, NONE
TestParameter, Measurement.Port.Filter, ON, ON, ON, ON
TestParameter, Measurement.Port.OutputVoltageComparison, 0, 0, 0, 0
TestParameter, Measurement.Primary.Locus, Double
TestParameter, Measurement.Primary.Scale, LINEAR
TestParameter, Measurement.Primary.Start, -2
TestParameter, Measurement.Primary.Stop, 1
TestParameter, Measurement.Primary.Step, 0.015000000000000001
TestParameter, Measurement.Primary.Compliance, 0.005
TestParameter, Measurement.Primary.PowerCompliance, 0
TestParameter, Measurement.Aborting.Condition, CONTINUE AT ANY
TestParameter, Measurement.PostOutput.Value, START
TestParameter, Measurement.PostOutput.Retention, OFF
TestParameter, Measurement.Secondary.Start, 0.1
TestParameter, Measurement.Secondary.Count, 4
TestParameter, Measurement.Secondary.Step, 0.3
TestParameter, Measurement.Secondary.Compliance, 0.005
TestParameter, Measurement.Secondary.PowerCompliance, 0
TestParameter, Measurement.Bias.Source, 0.1, 0, -2, 0.5
TestParameter, Measurement.Bias.Compliance, 0.005, 0.1, 0.005, 0.1
TestParameter, Measurement.Monitor.Unit, SMU2:HR, SMU1:HR, SMU4:HR, SMU3:HR
TestParameter, Measurement.Monitor.Adc, HR ADC, HR ADC, HR ADC, HR ADC
TestParameter, Measurement.Monitor.Measurement, Compliance Side, Compliance Side, Compliance Side, Compliance Side
TestParameter, Measurement.Monitor.RangingMode, LIMITED, LIMITED, LIMITED, LIMITED
TestParameter, Measurement.Monitor.RangeBoundary, 1nA, 1nA, 1nA, 1nA
TestParameter, Measurement.Monitor.RangeRating, BY FULL RANGE, BY FULL RANGE, BY FULL RANGE, BY FULL RANGE
TestParameter, Measurement.Monitor.RangeRatingCoeff, 50, 50, 50, 50
TestParameter, Measurement.Timing.Hold, 0
TestParameter, Measurement.Timing.Delay, 0
TestParameter, Measurement.Adc.HighSpeed.Mode, AUTO
TestParameter, Measurement.Adc.HighSpeed.Coeff, 1
TestParameter, Measurement.Adc.HighResolution.AutoZero, OFF
TestParameter, Measurement.Adc.HighResolution.Mode, AUTO
TestParameter, Measurement.Adc.HighResolution.Coeff, 6
TestParameter, Measurement.WaitTime.Source.Coeff, 1
TestParameter, Measurement.WaitTime.Source.Offset, 0
TestParameter, Measurement.WaitTime.Monitor.Coeff, 1
TestParameter, Measurement.WaitTime.Monitor.Offset, 0
TestParameter, Output.Graph.Enabled, true
TestParameter, Output.Graph.AutoScaling, false
TestParameter, Output.Graph.XAxis.Data, VTG
TestParameter, Output.Graph.XAxis.Scale, Linear
TestParameter, Output.Graph.XAxis.Left, -1
TestParameter, Output.Graph.XAxis.Right, 1
TestParameter, Output.Graph.XAxis.RunTimeAutoScale, false
TestParameter, Output.Graph.YAxis.Data, ID, ITG
TestParameter, Output.Graph.YAxis.Scale, Linear, Linear
TestParameter, Output.Graph.YAxis.Bottom, -0.1, -0.001
TestParameter, Output.Graph.YAxis.Top, 0.1, 0.001
TestParameter, Output.Graph.YAxis.Group, , 
TestParameter, Output.Graph.YAxis.RunTimeAutoScale, true, false
TestParameter, Output.List.Data, VTG, ID, VD, Vbg, Ibg, ITG, IS
TestParameter, AutoAnalysis.Interpolation, false
TestParameter, AutoAnalysis.Line1.Enabled, false
TestParameter, AutoAnalysis.Line1.Type, 1
TestParameter, AutoAnalysis.Line1.Fix, True
TestParameter, AutoAnalysis.Line1.YAxis, 0
TestParameter, AutoAnalysis.Line1.Point1.Type, 0
TestParameter, AutoAnalysis.Line1.Point1.XY.X, 
TestParameter, AutoAnalysis.Line1.Point1.XY.Y, 
TestParameter, AutoAnalysis.Line1.Point1.Data.Var, 
TestParameter, AutoAnalysis.Line1.Point1.Data.Condition, 
TestParameter, AutoAnalysis.Line1.Point1.Data.Start, false
TestParameter, AutoAnalysis.Line1.Point1.Data.StartVar, 
TestParameter, AutoAnalysis.Line1.Point1.Data.StartCondition, 
TestParameter, AutoAnalysis.Line1.Point2.Type, 0
TestParameter, AutoAnalysis.Line1.Point2.XY.X, 
TestParameter, AutoAnalysis.Line1.Point2.XY.Y, 
TestParameter, AutoAnalysis.Line1.Point2.Data.Var, 
TestParameter, AutoAnalysis.Line1.Point2.Data.Condition, 
TestParameter, AutoAnalysis.Line1.Point2.Data.Start, false
TestParameter, AutoAnalysis.Line1.Point2.Data.StartVar, 
TestParameter, AutoAnalysis.Line1.Point2.Data.StartCondition, 
TestParameter, AutoAnalysis.Line1.GradientExpr, 0
TestParameter, AutoAnalysis.Line2.Enabled, false
TestParameter, AutoAnalysis.Line2.Type, 1
TestParameter, AutoAnalysis.Line2.Fix, True
TestParameter, AutoAnalysis.Line2.YAxis, 0
TestParameter, AutoAnalysis.Line2.Point1.Type, 0
TestParameter, AutoAnalysis.Line2.Point1.XY.X, 
TestParameter, AutoAnalysis.Line2.Point1.XY.Y, 
TestParameter, AutoAnalysis.Line2.Point1.Data.Var, 
TestParameter, AutoAnalysis.Line2.Point1.Data.Condition, 
TestParameter, AutoAnalysis.Line2.Point1.Data.Start, false
TestParameter, AutoAnalysis.Line2.Point1.Data.StartVar, 
TestParameter, AutoAnalysis.Line2.Point1.Data.StartCondition, 
TestParameter, AutoAnalysis.Line2.Point2.Type, 0
TestParameter, AutoAnalysis.Line2.Point2.XY.X, 
TestParameter, AutoAnalysis.Line2.Point2.XY.Y, 
TestParameter, AutoAnalysis.Line2.Point2.Data.Var, 
TestParameter, AutoAnalysis.Line2.Point2.Data.Condition, 
TestParameter, AutoAnalysis.Line2.Point2.Data.Start, false
TestParameter, AutoAnalysis.Line2.Point2.Data.StartVar, 
TestParameter, AutoAnalysis.Line2.Point2.Data.StartCondition, 
TestParameter, AutoAnalysis.Line2.GradientExpr, 0
TestParameter, AutoAnalysis.Marker.Enabled, false
TestParameter, AutoAnalysis.Marker.Data.Var, 
TestParameter, AutoAnalysis.Marker.Data.Condition, 
TestParameter, AutoAnalysis.Marker.Data.Start, false
TestParameter, AutoAnalysis.Marker.Data.StartVar, 
TestParameter, AutoAnalysis.Marker.Data.StartCondition, 
MetaData, TestRecord.EntryPoint, true
MetaData, TestRecord.RecordTime, 10/06/2025 14:03:01
MetaData, TestRecord.TestTarget, E41-I18
MetaData, TestRecord.IterationIndex, 3
MetaData, TestRecord.Preservation, true
MetaData, TestRecord.Flag, 
MetaData, TestRecord.Remarks, 
MetaData, TestRecord.LinkKey, 300769fa-34da-4b2d-b304-15af53f08e0b
Dimension1, 402, 402, 402, 402, 402, 402, 402
Dimension2, 4, 4, 4, 4, 4, 4, 4
DataName, VTG, VD, Vbg, ID, IS, ITG, Ibg
DataValue, -2, 0.1, 0.5, 8.8718E-10, -9.2027000000000007E-10, -5.34E-12, 5.8700000000000006E-12
DataValue, -1.985, 0.1, 0.5, 9.735E-10, -9.7625E-10, -3.33E-12, 7.8E-12
DataValue, -1.9700000000000002, 0.1, 0.5, 1.00578E-09, -1.00797E-09, -3.46E-12, 8.11E-12
DataValue, -1.955, 0.1, 0.5, 1.0285300000000002E-09, -1.0298300000000002E-09, -4.17E-12, 5.74E-12
DataValue, -1.9400000000000002, 0.1, 0.5, 1.04647E-09, -1.04915E-09, -2.04E-12, 2.7800000000000003E-12
DataValue, -1.925, 0.1, 0.5, 1.08063E-09, -1.08499E-09, -4.03E-12, 2.2700000000000002E-12
DataValue, -1.9100000000000001, 0.1, 0.5, 1.1215800000000002E-09, -1.12178E-09, -2.37E-12, 7.55E-12
DataValue, -1.895, 0.1, 0.5, 1.1406900000000001E-09, -1.1484E-09, -1.9E-12, 3.15E-12
DataValue, -1.8800000000000001, 0.1, 0.5, 1.1708E-09, -1.1771E-09, -1.6300000000000001E-12, 5.28E-12
DataValue, -1.865, 0.1, 0.5, 1.2125E-09, -1.2187E-09, -2.64E-12, 7.6E-12
DataValue, -1.85, 0.1, 0.5, 1.2556E-09, -1.2586E-09, -1.8100000000000002E-12, 4.18E-12
DataValue, -1.8350000000000002, 0.1, 0.5, 1.2956E-09, -1.2859E-09, -2.9900000000000004E-12, 2.77E-12
DataValue, -1.82, 0.1, 0.5, 1.3036E-09, -1.2984E-09, -7E-13, 1.2000000000000002E-13
DataValue, -1.8050000000000002, 0.1, 0.5, 1.355E-09, -1.3476E-09, -3.6400000000000006E-12, -2.9000000000000003E-13
DataValue, -1.79, 0.1, 0.5, 1.3788E-09, -1.3764E-09, -6.400000000000001E-13, 1.03E-12
DataValue, -1.7750000000000001, 0.1, 0.5, 1.4006E-09, -1.4014E-09, -1.2500000000000001E-12, 2.82E-12
DataValue, -1.76, 0.1, 0.5, 1.4368E-09, -1.4495E-09, -1.6300000000000001E-12, 8.0800000000000011E-12
DataValue, -1.745, 0.1, 0.5, 1.4724E-09, -1.4697E-09, -1.1600000000000001E-12, 3.9400000000000006E-12
DataValue, -1.73, 0.1, 0.5, 1.5188E-09, -1.5191E-09, -2.3000000000000003E-12, 2.23E-12
DataValue, -1.715, 0.1, 0.5, 1.5598E-09, -1.5512E-09, -1.9000000000000002E-13, 3.1000000000000004E-13
DataValue, -1.7000000000000002, 0.1, 0.5, 1.5931E-09, -1.5926E-09, -3.0900000000000004E-12, -8.7E-13
DataValue, -1.685, 0.1, 0.5, 1.6535E-09, -1.6551E-09, -5.6E-13, 2.36E-12
DataValue, -1.6700000000000002, 0.1, 0.5, 1.6782E-09, -1.6833E-09, -4.9E-13, 3.4000000000000005E-12
DataValue, -1.655, 0.1, 0.5, 1.7541E-09, -1.7608E-09, -1.26E-12, 6.7500000000000009E-12
DataValue, -1.6400000000000001, 0.1, 0.5, 1.8097E-09, -1.8121E-09, -4.1E-13, 3.8300000000000004E-12
DataValue, -1.625, 0.1, 0.5, 1.8574E-09, -1.858E-09, -2.3300000000000004E-12, 1.51E-12
DataValue, -1.61, 0.1, 0.5, 1.9064E-09, -1.9108E-09, -9.0000000000000008E-14, -6.6E-13
DataValue, -1.595, 0.1, 0.5, 1.9627E-09, -1.9597E-09, -2.9100000000000003E-12, -1.4200000000000002E-12
DataValue, -1.58, 0.1, 0.5, 2.0395E-09, -2.05E-09, -1.1000000000000001E-13, 1.2500000000000001E-12
DataValue, -1.5650000000000002, 0.1, 0.5, 2.0951E-09, -2.0924E-09, -3.6000000000000003E-13, 3.8800000000000004E-12
DataValue, -1.55, 0.1, 0.5, 2.1285E-09, -2.1323E-09, -4.6000000000000006E-13, 7.8E-12
DataValue, -1.5350000000000001, 0.1, 0.5, 2.1683E-09, -2.1717E-09, -9.0000000000000008E-14, 4.02E-12
DataValue, -1.52, 0.1, 0.5, 2.246E-09, -2.256E-09, -1.45E-12, 4.6000000000000006E-13
DataValue, -1.5050000000000001, 0.1, 0.5, 2.3036E-09, -2.2972E-09, -4.0000000000000006E-14, -1.5400000000000001E-12
DataValue, -1.49, 0.1, 0.5, 2.3688E-09, -2.3645E-09, -2.9E-12, -1.5600000000000002E-12
DataValue, -1.475, 0.1, 0.5, 2.4509E-09, -2.4485E-09, -6.3E-13, 7E-13
DataValue, -1.46, 0.1, 0.5, 2.5284E-09, -2.5439E-09, 1.5000000000000002E-13, 3.58E-12
DataValue, -1.445, 0.1, 0.5, 2.6267E-09, -2.6281E-09, -4.1E-13, 6.21E-12
DataValue, -1.4300000000000002, 0.1, 0.5, 2.7129E-09, -2.7135E-09, 4.8000000000000008E-13, 2.8600000000000003E-12
DataValue, -1.415, 0.1, 0.5, 2.7713E-09, -2.7548E-09, -1.5600000000000002E-12, -1.4E-13
DataValue, -1.4000000000000001, 0.1, 0.5, 2.844E-09, -2.8415E-09, 3.6000000000000003E-13, -2.19E-12
DataValue, -1.385, 0.1, 0.5, 2.9165E-09, -2.9103E-09, -2.72E-12, -2.6000000000000002E-12
DataValue, -1.37, 0.1, 0.5, 3.0511E-09, -3.039E-09, -2.5E-13, 1.02E-12
DataValue, -1.355, 0.1, 0.5, 3.1626E-09, -3.1739E-09, 1.3E-13, 2.9E-12
DataValue, -1.34, 0.1, 0.5, 3.293E-09, -3.3145E-09, 2.1000000000000001E-13, 7.27E-12
DataValue, -1.325, 0.1, 0.5, 3.3629E-09, -3.3821E-09, 9.3E-13, 2.75E-12
DataValue, -1.31, 0.1, 0.5, 3.4991E-09, -3.4998E-09, -1.2800000000000002E-12, 1.8000000000000002E-13
DataValue, -1.2950000000000002, 0.1, 0.5, 3.5567E-09, -3.5503E-09, 5.8000000000000005E-13, -2.1000000000000003E-12
DataValue, -1.28, 0.1, 0.5, 3.681E-09, -3.6736E-09, -3.2700000000000004E-12, -3.2200000000000004E-12
DataValue, -1.2650000000000001, 0.1, 0.5, 3.7811E-09, -3.7852E-09, -3.4E-13, -3.2000000000000005E-13
DataValue, -1.25, 0.1, 0.5, 3.8898E-09, -3.8545E-09, -2.4000000000000004E-13, 2.9800000000000002E-12
DataValue, -1.235, 0.1, 0.5, 4.0462E-09, -4.0706E-09, 1.0000000000000002E-14, 8.3000000000000014E-12
DataValue, -1.22, 0.1, 0.5, 4.146E-09, -4.1573E-09, 1.4300000000000002E-12, 3.33E-12
DataValue, -1.205, 0.1, 0.5, 4.2867E-09, -4.2884E-09, 2.2000000000000002E-13, 1.65E-12
DataValue, -1.19, 0.1, 0.5, 4.4411E-09, -4.4037E-09, 8.9E-13, -2.2200000000000002E-12
DataValue, -1.175, 0.1, 0.5, 4.5536E-09, -4.5383E-09, -3.4200000000000004E-12, -3.15E-12
DataValue, -1.1600000000000001, 0.1, 0.5, 4.7491E-09, -4.7476E-09, -2.5E-13, -5.1E-13
DataValue, -1.145, 0.1, 0.5, 4.8839E-09, -4.8674E-09, 3.0000000000000003E-13, 3.46E-12
DataValue, -1.1300000000000001, 0.1, 0.5, 4.9915E-09, -4.9932E-09, 1.2000000000000001E-12, 8.97E-12
DataValue, -1.115, 0.1, 0.5, 5.1501E-09, -5.1571E-09, -4.5000000000000005E-13, 4.2500000000000007E-12
DataValue, -1.1, 0.1, 0.5, 5.32E-09, -5.2968E-09, -5.9E-13, -5.6E-13
DataValue, -1.085, 0.1, 0.5, 5.4524E-09, -5.3927E-09, -2.0000000000000003E-14, -3.02E-12
DataValue, -1.07, 0.1, 0.5, 5.6281E-09, -5.648E-09, -3.2E-12, -4.38E-12
DataValue, -1.0550000000000002, 0.1, 0.5, 5.7515E-09, -5.7568E-09, 4.9E-13, 5.1E-13
DataValue, -1.04, 0.1, 0.5, 5.947E-09, -5.9508E-09, 6.400000000000001E-13, 4.6100000000000008E-12
DataValue, -1.0250000000000001, 0.1, 0.5, 6.1302E-09, -6.1073E-09, 1.31E-12, 7.0800000000000005E-12
DataValue, -1.01, 0.1, 0.5, 6.3305E-09, -6.3869E-09, 2.26E-12, 2.62E-12
DataValue, -0.995, 0.1, 0.5, 6.5391E-09, -6.5691E-09, 1.04E-12, -1.86E-12
DataValue, -0.98000000000000009, 0.1, 0.5, 6.8276E-09, -6.7875E-09, 3.8000000000000005E-13, -3.1400000000000004E-12
DataValue, -0.96500000000000008, 0.1, 0.5, 7.0323E-09, -7.0159E-09, -3.72E-12, -3.9900000000000006E-12
DataValue, -0.95000000000000007, 0.1, 0.5, 7.1901E-09, -7.1763E-09, -4.9E-13, 1.8000000000000002E-13
DataValue, -0.935, 0.1, 0.5, 7.3698E-09, -7.3742E-09, 2.6E-13, 3.6000000000000004E-12
DataValue, -0.92, 0.1, 0.5, 7.6615E-09, -7.6829E-09, 1.4E-13, 6.4E-12
DataValue, -0.905, 0.1, 0.5, 7.9388E-09, -7.9456E-09, 2.29E-12, 2.4300000000000003E-12
DataValue, -0.89, 0.1, 0.5, 8.1286E-09, -8.1473E-09, -7.6000000000000009E-13, -2.3200000000000002E-12
DataValue, -0.875, 0.1, 0.5, 8.4534E-09, -8.4182E-09, 9.7000000000000011E-13, -3.96E-12
DataValue, -0.86, 0.1, 0.5, 8.7331E-09, -8.7054E-09, -2.57E-12, -3.5500000000000004E-12
DataValue, -0.84500000000000008, 0.1, 0.5, 8.981E-09, -9.0191E-09, -2.7E-13, 3.0000000000000005E-14
DataValue, -0.83000000000000007, 0.1, 0.5, 9.1826E-09, -9.1562E-09, 3.8000000000000005E-13, 3.3400000000000003E-12
DataValue, -0.81500000000000006, 0.1, 0.5, 9.468E-09, -9.4643E-09, 6.1E-13, 7.35E-12
DataValue, -0.8, 0.1, 0.5, 9.759E-09, -9.7705E-09, 2.0700000000000003E-12, 2.74E-12
DataValue, -0.785, 0.1, 0.5, 1.01793E-08, -1.01444E-08, -1.3E-13, -4.1E-13
DataValue, -0.77, 0.1, 0.5, 1.05489E-08, -1.04751E-08, 1.3400000000000002E-12, -3.02E-12
DataValue, -0.755, 0.1, 0.5, 1.09687E-08, -1.09062E-08, -2.4800000000000003E-12, -3.4100000000000002E-12
DataValue, -0.74, 0.1, 0.5, 1.13442E-08, -1.13703E-08, 4.1E-13, 5.4E-13
DataValue, -0.72500000000000009, 0.1, 0.5, 1.17522E-08, -1.1789199999999998E-08, 5.1E-13, 4.3000000000000007E-12
DataValue, -0.71000000000000008, 0.1, 0.5, 1.2044799999999999E-08, -1.20166E-08, 1.7500000000000002E-12, -1.7500000000000002E-12
DataValue, -0.69500000000000006, 0.1, 0.5, 1.2398599999999999E-08, -1.2345999999999999E-08, -1.3000000000000001E-12, 2.0500000000000004E-12
DataValue, -0.68, 0.1, 0.5, 1.28426E-08, -1.2778799999999999E-08, 1.31E-12, 1.2900000000000002E-12
DataValue, -0.665, 0.1, 0.5, 1.3189399999999998E-08, -1.3151799999999998E-08, -1.8700000000000003E-12, -2.36E-12
DataValue, -0.65, 0.1, 0.5, 1.36886E-08, -1.36436E-08, 1.5E-12, 1.95E-12
DataValue, -0.635, 0.1, 0.5, 1.4135999999999998E-08, -1.4143399999999998E-08, 3.9000000000000005E-13, -3.4100000000000002E-12
DataValue, -0.62, 0.1, 0.5, 1.4626199999999999E-08, -1.4660399999999999E-08, 1.1100000000000001E-12, 6.91E-12
DataValue, -0.605, 0.1, 0.5, 1.5321599999999998E-08, -1.5253799999999998E-08, -2.6000000000000002E-12, -3.7E-12
DataValue, -0.59000000000000008, 0.1, 0.5, 1.5852E-08, -1.5894999999999998E-08, 8.2E-13, 3.5200000000000003E-12
DataValue, -0.57500000000000007, 0.1, 0.5, 1.6431E-08, -1.6389399999999997E-08, 1.8100000000000002E-12, -2.92E-12
DataValue, -0.56, 0.1, 0.5, 1.69156E-08, -1.7E-08, 5E-14, 4.4400000000000005E-12
DataValue, -0.545, 0.1, 0.5, 1.77492E-08, -1.7677799999999997E-08, 4.1E-13, -7E-13
DataValue, -0.53, 0.1, 0.5, 1.83718E-08, -1.8432999999999997E-08, 2.0000000000000003E-14, 3.7000000000000004E-13
DataValue, -0.515, 0.1, 0.5, 1.90806E-08, -1.9064799999999998E-08, 1.1000000000000002E-12, 6.9000000000000009E-13
DataValue, -0.5, 0.1, 0.5, 1.98976E-08, -1.9854999999999998E-08, 2E-13, -2.4000000000000004E-13
DataValue, -0.48500000000000004, 0.1, 0.5, 2.0719399999999997E-08, -2.0651599999999997E-08, 1.3900000000000001E-12, 3.53E-12
DataValue, -0.47000000000000003, 0.1, 0.5, 2.1448399999999996E-08, -2.1428E-08, -2.46E-12, -1.88E-12
DataValue, -0.455, 0.1, 0.5, 2.2425599999999997E-08, -2.2330999999999997E-08, 2.0200000000000003E-12, 3.4100000000000002E-12
DataValue, -0.44, 0.1, 0.5, 2.29252E-08, -2.2975999999999997E-08, 9.7000000000000011E-13, -4.4500000000000006E-12
DataValue, -0.42500000000000004, 0.1, 0.5, 2.3943599999999997E-08, -2.3962399999999998E-08, 5.5000000000000008E-13, 5.9100000000000005E-12
DataValue, -0.41000000000000003, 0.1, 0.5, 2.48012E-08, -2.4748599999999997E-08, -1.6E-12, -3.7E-12
DataValue, -0.395, 0.1, 0.5, 2.5780199999999997E-08, -2.5732599999999998E-08, 7E-13, 2.3800000000000004E-12
DataValue, -0.38, 0.1, 0.5, 2.6822599999999996E-08, -2.6626799999999997E-08, 2.11E-12, -1.3800000000000002E-12
DataValue, -0.365, 0.1, 0.5, 2.7764799999999997E-08, -2.7789999999999996E-08, -4.1E-13, 1.09E-12
DataValue, -0.35000000000000003, 0.1, 0.5, 2.9027799999999996E-08, -2.88534E-08, 9.4E-13, 4.5000000000000005E-13
DataValue, -0.335, 0.1, 0.5, 2.9856999999999994E-08, -3.00086E-08, -1.95E-12, -2.57E-12
DataValue, -0.32, 0.1, 0.5, 3.1055599999999995E-08, -3.08416E-08, 2.29E-12, 3.2600000000000002E-12
DataValue, -0.305, 0.1, 0.5, 3.2069999999999995E-08, -3.20244E-08, 5.2E-13, -3.9300000000000004E-12
DataValue, -0.29000000000000004, 0.1, 0.5, 3.3370399999999996E-08, -3.3234199999999996E-08, 1.1900000000000002E-12, 5.2200000000000008E-12
DataValue, -0.275, 0.1, 0.5, 3.49232E-08, -3.4762199999999995E-08, -2.77E-12, -4.82E-12
DataValue, -0.26, 0.1, 0.5, 3.6326599999999997E-08, -3.6513199999999995E-08, 2.0200000000000003E-12, 4.08E-12
DataValue, -0.24500000000000002, 0.1, 0.5, 3.7709199999999995E-08, -3.7647399999999995E-08, 1.4400000000000001E-12, -2.9600000000000003E-12
DataValue, -0.23, 0.1, 0.5, 3.9286799999999995E-08, -3.9128199999999996E-08, 1.1000000000000001E-13, 3.51E-12
DataValue, -0.215, 0.1, 0.5, 4.08494E-08, -4.07632E-08, 5.8000000000000005E-13, -2.06E-12
DataValue, -0.2, 0.1, 0.5, 4.2494799999999994E-08, -4.23118E-08, -1.4800000000000002E-12, -2.4000000000000004E-13
DataValue, -0.185, 0.1, 0.5, 4.4152599999999997E-08, -4.4054799999999996E-08, 2.8900000000000004E-12, 1.86E-12
DataValue, -0.17, 0.1, 0.5, 4.59986E-08, -4.60216E-08, 1.4E-13, -3.9300000000000004E-12
DataValue, -0.155, 0.1, 0.5, 4.7631799999999995E-08, -4.7591799999999996E-08, 1.9900000000000002E-12, 5.09E-12
DataValue, -0.14, 0.1, 0.5, 4.9840599999999994E-08, -4.98524E-08, -2.87E-12, -3.8400000000000006E-12
DataValue, -0.125, 0.1, 0.5, 5.1849599999999996E-08, -5.1713999999999996E-08, 2.34E-12, 3.9E-12
DataValue, -0.11, 0.1, 0.5, 5.4317599999999995E-08, -5.4347799999999994E-08, 7.8000000000000011E-13, -4.4000000000000006E-12
DataValue, -0.095, 0.1, 0.5, 5.64026E-08, -5.6259999999999996E-08, 1.4E-13, 4.9000000000000005E-12
DataValue, -0.08, 0.1, 0.5, 5.8784599999999992E-08, -5.8733599999999993E-08, -1.1600000000000001E-12, -2.4000000000000003E-12
DataValue, -0.065, 0.1, 0.5, 6.12458E-08, -6.09654E-08, -2.3000000000000003E-13, 1.6700000000000002E-12
DataValue, -0.05, 0.1, 0.5, 6.37132E-08, -6.33806E-08, 2.0500000000000004E-12, -1E-13
DataValue, -0.035, 0.1, 0.5, 6.5745399999999993E-08, -6.5998199999999991E-08, -1.1000000000000001E-13, -1.09E-12
DataValue, -0.02, 0.1, 0.5, 6.8385E-08, -6.83994E-08, 1.7100000000000002E-12, 4.3900000000000005E-12
DataValue, -0.005, 0.1, 0.5, 7.13392E-08, -7.1060199999999987E-08, -2.8E-12, -3.0400000000000004E-12
DataValue, 0.01, 0.1, 0.5, 7.39698E-08, -7.3672599999999992E-08, 1.8900000000000002E-12, 2.69E-12
DataValue, 0.025, 0.1, 0.5, 7.6506E-08, -7.6321799999999989E-08, 1.14E-12, -4.51E-12
DataValue, 0.04, 0.1, 0.5, 7.92412E-08, -7.89E-08, 7E-13, 5.64E-12
DataValue, 0.055, 0.1, 0.5, 8.1973799999999993E-08, -8.17482E-08, -9.8E-13, -3.65E-12
