
SetupTitle, ExfoliatedMoS2_TGIdVg
PrimitiveTest, I/V Sweep
TestParameter, Context.MainFrame, B1500A
TestParameter, Channel.UnitType, SMU, SMU, SMU, SMU
TestParameter, Channel.Unit, SMU2:HR, SMU1:HR, SMU4:HR, SMU3:HR
TestParameter, Channel.IName, ID, IS, ITG, Ibg
TestParameter, Channel.VName, VD, VS, VTG, Vbg
TestParameter, Channel.Mode, V, COMMON, V, V
TestParameter, Channel.Func, VAR2, CONST, VAR1, CONST
TestParameter, Channel.Index, 
TestParameter, Channel.Time, 
TestParameter, Measurement.Port.Unit, SMU2:HR, SMU1:HR, SMU4:HR, SMU3:HR
TestParameter, Measurement.Port.SeriesResistor, NONE, NONE, NONE, NONE
TestParameter, Measurement.Port.Filter, ON, ON, ON, ON
TestParameter, Measurement.Port.OutputVoltageComparison, 0, 0, 0, 0
TestParameter, Measurement.Primary.Locus, Double
TestParameter, Measurement.Primary.Scale, LINEAR
TestParameter, Measurement.Primary.Start, -2
TestParameter, Measurement.Primary.Stop, 1
TestParameter, Measurement.Primary.Step, 0.015000000000000001
TestParameter, Measurement.Primary.Compliance, 0.005
TestParameter, Measurement.Primary.PowerCompliance, 0
TestParameter, Measurement.Aborting.Condition, CONTINUE AT ANY
TestParameter, Measurement.PostOutput.Value, START
TestParameter, Measurement.PostOutput.Retention, OFF
TestParameter, Measurement.Secondary.Start, 0.1
TestParameter, Measurement.Secondary.Count, 4
TestParameter, Measurement.Secondary.Step, 0.3
TestParameter, Measurement.Secondary.Compliance, 0.005
TestParameter, Measurement.Secondary.PowerCompliance, 0
TestParameter, Measurement.Bias.Source, 0.1, 0, -2, 0.5
TestParameter, Measurement.Bias.Compliance, 0.005, 0.1, 0.005, 0.1
TestParameter, Measurement.Monitor.Unit, SMU2:HR, SMU1:HR, SMU4:HR, SMU3:HR
TestParameter, Measurement.Monitor.Adc, HR ADC, HR ADC, HR ADC, HR ADC
TestParameter, Measurement.Monitor.Measurement, Compliance Side, Compliance Side, Compliance Side, Compliance Side
TestParameter, Measurement.Monitor.RangingMode, LIMITED, LIMITED, LIMITED, LIMITED
TestParameter, Measurement.Monitor.RangeBoundary, 1nA, 1nA, 1nA, 1nA
TestParameter, Measurement.Monitor.RangeRating, BY FULL RANGE, BY FULL RANGE, BY FULL RANGE, BY FULL RANGE
TestParameter, Measurement.Monitor.RangeRatingCoeff, 50, 50, 50, 50
TestParameter, Measurement.Timing.Hold, 0
TestParameter, Measurement.Timing.Delay, 0
TestParameter, Measurement.Adc.HighSpeed.Mode, AUTO
TestParameter, Measurement.Adc.HighSpeed.Coeff, 1
TestParameter, Measurement.Adc.HighResolution.AutoZero, OFF
TestParameter, Measurement.Adc.HighResolution.Mode, AUTO
TestParameter, Measurement.Adc.HighResolution.Coeff, 6
TestParameter, Measurement.WaitTime.Source.Coeff, 1
TestParameter, Measurement.WaitTime.Source.Offset, 0
TestParameter, Measurement.WaitTime.Monitor.Coeff, 1
TestParameter, Measurement.WaitTime.Monitor.Offset, 0
TestParameter, Output.Graph.Enabled, true
TestParameter, Output.Graph.AutoScaling, false
TestParameter, Output.Graph.XAxis.Data, VTG
TestParameter, Output.Graph.XAxis.Scale, Linear
TestParameter, Output.Graph.XAxis.Left, -1
TestParameter, Output.Graph.XAxis.Right, 1
TestParameter, Output.Graph.XAxis.RunTimeAutoScale, false
TestParameter, Output.Graph.YAxis.Data, ID, ITG
TestParameter, Output.Graph.YAxis.Scale, Linear, Linear
TestParameter, Output.Graph.YAxis.Bottom, -0.1, -0.001
TestParameter, Output.Graph.YAxis.Top, 0.1, 0.001
TestParameter, Output.Graph.YAxis.Group, , 
TestParameter, Output.Graph.YAxis.RunTimeAutoScale, true, false
TestParameter, Output.List.Data, VTG, ID, VD, Vbg, Ibg, ITG, IS
TestParameter, AutoAnalysis.Interpolation, false
TestParameter, AutoAnalysis.Line1.Enabled, false
TestParameter, AutoAnalysis.Line1.Type, 1
TestParameter, AutoAnalysis.Line1.Fix, True
TestParameter, AutoAnalysis.Line1.YAxis, 0
TestParameter, AutoAnalysis.Line1.Point1.Type, 0
TestParameter, AutoAnalysis.Line1.Point1.XY.X, 
TestParameter, AutoAnalysis.Line1.Point1.XY.Y, 
TestParameter, AutoAnalysis.Line1.Point1.Data.Var, 
TestParameter, AutoAnalysis.Line1.Point1.Data.Condition, 
TestParameter, AutoAnalysis.Line1.Point1.Data.Start, false
TestParameter, AutoAnalysis.Line1.Point1.Data.StartVar, 
TestParameter, AutoAnalysis.Line1.Point1.Data.StartCondition, 
TestParameter, AutoAnalysis.Line1.Point2.Type, 0
TestParameter, AutoAnalysis.Line1.Point2.XY.X, 
TestParameter, AutoAnalysis.Line1.Point2.XY.Y, 
TestParameter, AutoAnalysis.Line1.Point2.Data.Var, 
TestParameter, AutoAnalysis.Line1.Point2.Data.Condition, 
TestParameter, AutoAnalysis.Line1.Point2.Data.Start, false
TestParameter, AutoAnalysis.Line1.Point2.Data.StartVar, 
TestParameter, AutoAnalysis.Line1.Point2.Data.StartCondition, 
TestParameter, AutoAnalysis.Line1.GradientExpr, 0
TestParameter, AutoAnalysis.Line2.Enabled, false
TestParameter, AutoAnalysis.Line2.Type, 1
TestParameter, AutoAnalysis.Line2.Fix, True
TestParameter, AutoAnalysis.Line2.YAxis, 0
TestParameter, AutoAnalysis.Line2.Point1.Type, 0
TestParameter, AutoAnalysis.Line2.Point1.XY.X, 
TestParameter, AutoAnalysis.Line2.Point1.XY.Y, 
TestParameter, AutoAnalysis.Line2.Point1.Data.Var, 
TestParameter, AutoAnalysis.Line2.Point1.Data.Condition, 
TestParameter, AutoAnalysis.Line2.Point1.Data.Start, false
TestParameter, AutoAnalysis.Line2.Point1.Data.StartVar, 
TestParameter, AutoAnalysis.Line2.Point1.Data.StartCondition, 
TestParameter, AutoAnalysis.Line2.Point2.Type, 0
TestParameter, AutoAnalysis.Line2.Point2.XY.X, 
TestParameter, AutoAnalysis.Line2.Point2.XY.Y, 
TestParameter, AutoAnalysis.Line2.Point2.Data.Var, 
TestParameter, AutoAnalysis.Line2.Point2.Data.Condition, 
TestParameter, AutoAnalysis.Line2.Point2.Data.Start, false
TestParameter, AutoAnalysis.Line2.Point2.Data.StartVar, 
TestParameter, AutoAnalysis.Line2.Point2.Data.StartCondition, 
TestParameter, AutoAnalysis.Line2.GradientExpr, 0
TestParameter, AutoAnalysis.Marker.Enabled, false
TestParameter, AutoAnalysis.Marker.Data.Var, 
TestParameter, AutoAnalysis.Marker.Data.Condition, 
TestParameter, AutoAnalysis.Marker.Data.Start, false
TestParameter, AutoAnalysis.Marker.Data.StartVar, 
TestParameter, AutoAnalysis.Marker.Data.StartCondition, 
MetaData, TestRecord.EntryPoint, true
MetaData, TestRecord.RecordTime, 10/06/2025 14:14:19
MetaData, TestRecord.TestTarget, E41-O15
MetaData, TestRecord.IterationIndex, 4
MetaData, TestRecord.Preservation, true
MetaData, TestRecord.Flag, 
MetaData, TestRecord.Remarks, 
MetaData, TestRecord.LinkKey, ac0f523c-31b6-4008-985d-f8a1ddb761a7
Dimension1, 402, 402, 402, 402, 402, 402, 402
Dimension2, 4, 4, 4, 4, 4, 4, 4
DataName, VTG, VD, Vbg, ID, IS, ITG, Ibg
DataValue, -2, 0.1, 0.5, 1.1448E-09, -1.1661E-09, -5.9600000000000005E-12, 5.84E-12
DataValue, -1.985, 0.1, 0.5, 1.1834E-09, -1.188E-09, -3.6400000000000006E-12, 7.31E-12
DataValue, -1.9700000000000002, 0.1, 0.5, 1.2257E-09, -1.2244E-09, -3.53E-12, 8.8800000000000009E-12
DataValue, -1.955, 0.1, 0.5, 1.2475E-09, -1.2586E-09, -3.82E-12, 1.1960000000000002E-11
DataValue, -1.9400000000000002, 0.1, 0.5, 1.2909E-09, -1.2974E-09, -3.3200000000000004E-12, 7.54E-12
DataValue, -1.925, 0.1, 0.5, 1.334E-09, -1.3345E-09, -4.4500000000000006E-12, 6.19E-12
DataValue, -1.9100000000000001, 0.1, 0.5, 1.3523E-09, -1.3423E-09, -1.9400000000000002E-12, 2.31E-12
DataValue, -1.895, 0.1, 0.5, 1.3748E-09, -1.3659E-09, -4.53E-12, 1.5E-12
DataValue, -1.8800000000000001, 0.1, 0.5, 1.3954E-09, -1.3957E-09, -2.1000000000000003E-12, 5.6700000000000007E-12
DataValue, -1.865, 0.1, 0.5, 1.4458E-09, -1.4547E-09, -1.85E-12, 6.7800000000000006E-12
DataValue, -1.85, 0.1, 0.5, 1.4832E-09, -1.4961E-09, -2.3500000000000003E-12, 9.35E-12
DataValue, -1.8350000000000002, 0.1, 0.5, 1.524E-09, -1.5236E-09, -2.03E-12, 5.8700000000000006E-12
DataValue, -1.82, 0.1, 0.5, 1.5733E-09, -1.5699E-09, -3.1900000000000003E-12, 3E-12
DataValue, -1.8050000000000002, 0.1, 0.5, 1.6048E-09, -1.6101E-09, -1.2400000000000002E-12, 5.9E-13
DataValue, -1.79, 0.1, 0.5, 1.6154E-09, -1.6097E-09, -3.87E-12, 1.6800000000000001E-12
DataValue, -1.7750000000000001, 0.1, 0.5, 1.6309E-09, -1.6328E-09, -1.2800000000000002E-12, 5.07E-12
DataValue, -1.76, 0.1, 0.5, 1.6946E-09, -1.7093E-09, -1.21E-12, 5.4200000000000007E-12
DataValue, -1.745, 0.1, 0.5, 1.7515E-09, -1.7578E-09, -1.5200000000000002E-12, 8.56E-12
DataValue, -1.73, 0.1, 0.5, 1.7751E-09, -1.7751E-09, -8.9E-13, 4.8500000000000005E-12
DataValue, -1.715, 0.1, 0.5, 1.8309E-09, -1.827E-09, -2.7800000000000003E-12, 7.5E-13
DataValue, -1.7000000000000002, 0.1, 0.5, 1.8578E-09, -1.8601E-09, -5.4E-13, 1.3E-13
DataValue, -1.685, 0.1, 0.5, 1.9075E-09, -1.8987E-09, -3.3900000000000003E-12, 9.000000000000001E-13
DataValue, -1.6700000000000002, 0.1, 0.5, 1.966E-09, -1.9645E-09, -8.2E-13, 2E-12
DataValue, -1.655, 0.1, 0.5, 2.0234E-09, -2.0288E-09, -8.9E-13, 5.3200000000000008E-12
DataValue, -1.6400000000000001, 0.1, 0.5, 2.0903E-09, -2.0932E-09, -1.1000000000000002E-12, 8.6700000000000008E-12
DataValue, -1.625, 0.1, 0.5, 2.1437E-09, -2.1472E-09, -6.3E-13, 3.72E-12
DataValue, -1.61, 0.1, 0.5, 2.2149E-09, -2.2137E-09, -1.8400000000000002E-12, 1.41E-12
DataValue, -1.595, 0.1, 0.5, 2.2811E-09, -2.2691E-09, -3.7000000000000004E-13, -6.2000000000000008E-13
DataValue, -1.58, 0.1, 0.5, 2.3585E-09, -2.3488E-09, -3.4100000000000002E-12, -1.36E-12
DataValue, -1.5650000000000002, 0.1, 0.5, 2.4326E-09, -2.4346E-09, -6.8E-13, 2.1000000000000003E-12
DataValue, -1.55, 0.1, 0.5, 2.4937E-09, -2.4946E-09, -4.8000000000000008E-13, 6.4800000000000007E-12
DataValue, -1.5350000000000001, 0.1, 0.5, 2.5258E-09, -2.5383E-09, -5E-13, 7.6800000000000012E-12
DataValue, -1.52, 0.1, 0.5, 2.6073E-09, -2.5994E-09, 2.4000000000000004E-13, 4.17E-12
DataValue, -1.5050000000000001, 0.1, 0.5, 2.6978E-09, -2.6944E-09, -1.0600000000000001E-12, 2.08E-12
DataValue, -1.49, 0.1, 0.5, 2.7634E-09, -2.7636E-09, 5E-14, -1.5300000000000001E-12
DataValue, -1.475, 0.1, 0.5, 2.8597E-09, -2.8483E-09, -3.53E-12, -1.5400000000000001E-12
DataValue, -1.46, 0.1, 0.5, 2.9195E-09, -2.925E-09, -1.3800000000000002E-12, 1.8000000000000002E-12
DataValue, -1.445, 0.1, 0.5, 3.0091E-09, -3.0006E-09, -3.2000000000000005E-13, 4.62E-12
DataValue, -1.4300000000000002, 0.1, 0.5, 3.0872E-09, -3.0976E-09, 2.0000000000000003E-14, 6.5200000000000005E-12
DataValue, -1.415, 0.1, 0.5, 3.1784E-09, -3.1806E-09, 4.6000000000000006E-13, 4.32E-12
DataValue, -1.4000000000000001, 0.1, 0.5, 3.2772E-09, -3.2893E-09, -1.1600000000000001E-12, -9.0000000000000008E-14
DataValue, -1.385, 0.1, 0.5, 3.3955E-09, -3.3862E-09, 1.9000000000000002E-13, -2.19E-12
DataValue, -1.37, 0.1, 0.5, 3.4819E-09, -3.4686E-09, -2.97E-12, -5.6E-13
DataValue, -1.355, 0.1, 0.5, 3.598E-09, -3.6178E-09, -1.5800000000000001E-12, 3.3700000000000004E-12
DataValue, -1.34, 0.1, 0.5, 3.6847E-09, -3.6921E-09, 4.2000000000000003E-13, 4.37E-12
DataValue, -1.325, 0.1, 0.5, 3.8339E-09, -3.8275E-09, 7.7000000000000005E-13, 7.73E-12
DataValue, -1.31, 0.1, 0.5, 3.983E-09, -3.9648E-09, 1.5400000000000001E-12, 2.8300000000000003E-12
DataValue, -1.2950000000000002, 0.1, 0.5, 4.095E-09, -4.072E-09, -9.2000000000000012E-13, -2.7600000000000004E-12
DataValue, -1.28, 0.1, 0.5, 4.2032E-09, -4.1916E-09, -2.7E-13, -1.3900000000000001E-12
DataValue, -1.2650000000000001, 0.1, 0.5, 4.3137E-09, -4.2947E-09, -2.7000000000000002E-12, -1.7E-13
DataValue, -1.25, 0.1, 0.5, 4.4901E-09, -4.4764E-09, -9.4E-13, 3.2400000000000003E-12
DataValue, -1.235, 0.1, 0.5, 4.6028E-09, -4.6042E-09, 2.7E-13, 5.19E-12
DataValue, -1.22, 0.1, 0.5, 4.7498E-09, -4.7677E-09, 8.0000000000000013E-14, 5.04E-12
DataValue, -1.205, 0.1, 0.5, 4.9247E-09, -4.909E-09, 1.95E-12, 1.2900000000000002E-12
DataValue, -1.19, 0.1, 0.5, 5.0808E-09, -5.0768E-09, -2.3500000000000003E-12, -2.7600000000000004E-12
DataValue, -1.175, 0.1, 0.5, 5.214E-09, -5.2383E-09, 7.4000000000000008E-13, -1.98E-12
DataValue, -1.1600000000000001, 0.1, 0.5, 5.4175E-09, -5.4182E-09, -1.9900000000000002E-12, -2.04E-12
DataValue, -1.145, 0.1, 0.5, 5.5721E-09, -5.5877E-09, -7.3E-13, 4.31E-12
DataValue, -1.1300000000000001, 0.1, 0.5, 5.772E-09, -5.7724E-09, 7.3E-13, 4.33E-12
DataValue, -1.115, 0.1, 0.5, 5.9063E-09, -5.9438E-09, 9.5E-13, 6.21E-12
DataValue, -1.1, 0.1, 0.5, 6.1348E-09, -6.1746E-09, 2.1700000000000002E-12, -9.1000000000000016E-13
DataValue, -1.085, 0.1, 0.5, 6.4014E-09, -6.4264E-09, -1.9900000000000002E-12, -1.4800000000000002E-12
DataValue, -1.07, 0.1, 0.5, 6.6051E-09, -6.5813E-09, -1E-13, -3.4100000000000002E-12
DataValue, -1.0550000000000002, 0.1, 0.5, 6.8183E-09, -6.8147E-09, -1.8200000000000003E-12, -1.59E-12
DataValue, -1.04, 0.1, 0.5, 7.058E-09, -7.0427E-09, -5.1E-13, 6.0100000000000004E-12
DataValue, -1.0250000000000001, 0.1, 0.5, 7.2772E-09, -7.2564E-09, 2.1500000000000003E-12, 5.07E-12
DataValue, -1.01, 0.1, 0.5, 7.4636E-09, -7.4796E-09, 9.5E-13, 4.28E-12
DataValue, -0.995, 0.1, 0.5, 7.7178E-09, -7.7315E-09, 2.0700000000000003E-12, -4.6000000000000006E-13
DataValue, -0.98000000000000009, 0.1, 0.5, 7.9981E-09, -7.9867E-09, -2.2700000000000002E-12, -2.82E-12
DataValue, -0.96500000000000008, 0.1, 0.5, 8.3378E-09, -8.3277E-09, -2.1000000000000001E-13, -2.87E-12
DataValue, -0.95000000000000007, 0.1, 0.5, 8.6503E-09, -8.6483E-09, -9.7000000000000011E-13, 1.07E-12
DataValue, -0.935, 0.1, 0.5, 8.8957E-09, -8.8985E-09, -1.5000000000000002E-13, 7.3700000000000011E-12
DataValue, -0.92, 0.1, 0.5, 9.2029E-09, -9.2133E-09, 7.4000000000000008E-13, 2.77E-12
DataValue, -0.905, 0.1, 0.5, 9.5235E-09, -9.5317E-09, 1.0600000000000001E-12, 3.1900000000000003E-12
DataValue, -0.89, 0.1, 0.5, 9.8939E-09, -9.9029E-09, 2.14E-12, -7.5E-13
DataValue, -0.875, 0.1, 0.5, 1.02587E-08, -1.02468E-08, -2.6100000000000004E-12, -4.56E-12
DataValue, -0.86, 0.1, 0.5, 1.06446E-08, -1.06369E-08, 4.7E-13, -2.79E-12
DataValue, -0.84500000000000008, 0.1, 0.5, 1.11092E-08, -1.10935E-08, -1.5700000000000002E-12, 1.2800000000000002E-12
DataValue, -0.83000000000000007, 0.1, 0.5, 1.14514E-08, -1.1453799999999999E-08, -1.8000000000000002E-13, -1.8400000000000002E-12
DataValue, -0.81500000000000006, 0.1, 0.5, 1.1895799999999999E-08, -1.1894799999999999E-08, 1.4800000000000002E-12, 5.7100000000000005E-12
DataValue, -0.8, 0.1, 0.5, 1.2286799999999999E-08, -1.2347599999999999E-08, -2.8800000000000002E-12, -4.03E-12
DataValue, -0.785, 0.1, 0.5, 1.2821599999999999E-08, -1.28534E-08, 1.6100000000000002E-12, 3.75E-12
DataValue, -0.77, 0.1, 0.5, 1.3264599999999998E-08, -1.3264799999999999E-08, -9.8E-13, -4.16E-12
DataValue, -0.755, 0.1, 0.5, 1.37534E-08, -1.3754999999999998E-08, -4.1E-13, 5.3600000000000006E-12
DataValue, -0.74, 0.1, 0.5, 1.4267399999999998E-08, -1.4219399999999998E-08, -1.1000000000000002E-12, -2.6000000000000002E-12
DataValue, -0.72500000000000009, 0.1, 0.5, 1.49508E-08, -1.4894199999999999E-08, 1.0000000000000002E-14, 3.81E-12
DataValue, -0.71000000000000008, 0.1, 0.5, 1.5453999999999997E-08, -1.5451799999999997E-08, 1.55E-12, -1.64E-12
DataValue, -0.69500000000000006, 0.1, 0.5, 1.6074399999999997E-08, -1.6006799999999998E-08, -4.4000000000000004E-13, 1.8700000000000003E-12
DataValue, -0.68, 0.1, 0.5, 1.6754399999999997E-08, -1.674E-08, 7.7000000000000005E-13, 2.2700000000000002E-12
DataValue, -0.665, 0.1, 0.5, 1.7400999999999998E-08, -1.72866E-08, -1.7600000000000002E-12, -1.6300000000000001E-12
DataValue, -0.65, 0.1, 0.5, 1.8063599999999997E-08, -1.8009E-08, 2.24E-12, 3.65E-12
DataValue, -0.635, 0.1, 0.5, 1.88066E-08, -1.8789799999999997E-08, 1.8000000000000002E-13, -3.15E-12
DataValue, -0.62, 0.1, 0.5, 1.9439E-08, -1.9514399999999997E-08, 3.8000000000000005E-13, 4.6600000000000007E-12
DataValue, -0.605, 0.1, 0.5, 2.02582E-08, -2.0200999999999997E-08, -2.69E-12, -2.87E-12
DataValue, -0.59000000000000008, 0.1, 0.5, 2.1005399999999997E-08, -2.0971799999999997E-08, 1.22E-12, 6.1E-12
DataValue, -0.57500000000000007, 0.1, 0.5, 2.20634E-08, -2.2018E-08, 1.26E-12, -3.2400000000000003E-12
DataValue, -0.56, 0.1, 0.5, 2.3060199999999997E-08, -2.29766E-08, 3.0000000000000005E-14, 5.2700000000000008E-12
DataValue, -0.545, 0.1, 0.5, 2.4018999999999998E-08, -2.38956E-08, 1.4E-13, -1.1600000000000001E-12
DataValue, -0.53, 0.1, 0.5, 2.4827599999999997E-08, -2.4845E-08, -2.6E-13, 1E-12
DataValue, -0.515, 0.1, 0.5, 2.6042799999999996E-08, -2.5910199999999996E-08, 2.18E-12, 1.5600000000000002E-12
DataValue, -0.5, 0.1, 0.5, 2.7062799999999998E-08, -2.7044799999999997E-08, 3.7000000000000004E-13, -1.7600000000000002E-12
DataValue, -0.48500000000000004, 0.1, 0.5, 2.8252199999999998E-08, -2.8331199999999998E-08, 1.9E-12, 3.46E-12
DataValue, -0.47000000000000003, 0.1, 0.5, 2.9557399999999996E-08, -2.9561999999999997E-08, -2.6300000000000003E-12, -3.3900000000000003E-12
DataValue, -0.455, 0.1, 0.5, 3.10176E-08, -3.1044599999999996E-08, 1.3800000000000002E-12, 2.64E-12
DataValue, -0.44, 0.1, 0.5, 3.2257599999999995E-08, -3.2181999999999997E-08, 4.1E-13, -4.13E-12
DataValue, -0.42500000000000004, 0.1, 0.5, 3.34948E-08, -3.3536599999999996E-08, 8.9E-13, 7.7600000000000009E-12
DataValue, -0.41000000000000003, 0.1, 0.5, 3.50692E-08, -3.4987599999999994E-08, -1.7700000000000001E-12, -4.2500000000000007E-12
DataValue, -0.395, 0.1, 0.5, 3.6497999999999994E-08, -3.65052E-08, 9.0000000000000008E-14, 2.5300000000000003E-12
DataValue, -0.38, 0.1, 0.5, 3.81414E-08, -3.8133999999999996E-08, 1.9E-12, -9.5E-13
DataValue, -0.365, 0.1, 0.5, 3.9739199999999994E-08, -3.98192E-08, -3.0000000000000005E-14, 1.2500000000000001E-12
DataValue, -0.35000000000000003, 0.1, 0.5, 4.1777799999999994E-08, -4.16522E-08, 1.4400000000000001E-12, 1.55E-12
DataValue, -0.335, 0.1, 0.5, 4.3483999999999994E-08, -4.3476399999999994E-08, -1.9700000000000003E-12, -1.6700000000000002E-12
DataValue, -0.32, 0.1, 0.5, 4.54016E-08, -4.5390999999999993E-08, 2.4800000000000003E-12, 1.7600000000000002E-12
DataValue, -0.305, 0.1, 0.5, 4.7404799999999996E-08, -4.7464599999999993E-08, 2.4000000000000004E-13, -3.33E-12
DataValue, -0.29000000000000004, 0.1, 0.5, 4.9727999999999994E-08, -4.9619599999999995E-08, 1.2900000000000002E-12, 6.3300000000000007E-12
DataValue, -0.275, 0.1, 0.5, 5.19966E-08, -5.1935999999999996E-08, -2.79E-12, -5.55E-12
DataValue, -0.26, 0.1, 0.5, 5.4386999999999996E-08, -5.4064399999999995E-08, 1.6200000000000002E-12, 4.43E-12
DataValue, -0.24500000000000002, 0.1, 0.5, 5.6935599999999993E-08, -5.6741399999999994E-08, 1.1100000000000001E-12, -3.2E-12
DataValue, -0.23, 0.1, 0.5, 5.9475199999999992E-08, -5.9578999999999994E-08, 1.9000000000000002E-13, 4.5000000000000006E-12
DataValue, -0.215, 0.1, 0.5, 6.21696E-08, -6.21454E-08, -1.0000000000000002E-14, -9.7000000000000011E-13
DataValue, -0.2, 0.1, 0.5, 6.4734799999999993E-08, -6.5018399999999989E-08, -5.7E-13, 2.9000000000000003E-13
DataValue, -0.185, 0.1, 0.5, 6.8481199999999987E-08, -6.82396E-08, 2.23E-12, -6.0000000000000009E-14
DataValue, -0.17, 0.1, 0.5, 7.17354E-08, -7.1635399999999988E-08, 1.5000000000000002E-13, -8.4000000000000006E-13
DataValue, -0.155, 0.1, 0.5, 7.41198E-08, -7.375E-08, 1.5800000000000001E-12, 3.05E-12
DataValue, -0.14, 0.1, 0.5, 7.7126999999999986E-08, -7.7115599999999992E-08, -2.9E-12, -2.9900000000000004E-12
DataValue, -0.125, 0.1, 0.5, 8.08384E-08, -8.05014E-08, 2.4000000000000003E-12, 3.8E-12
DataValue, -0.11, 0.1, 0.5, 8.4109199999999987E-08, -8.3848399999999993E-08, 9.0000000000000008E-14, -5.94E-12
DataValue, -0.095, 0.1, 0.5, 8.80522E-08, -8.8082399999999989E-08, 1.6E-12, 5.99E-12
DataValue, -0.08, 0.1, 0.5, 9.2123999999999985E-08, -9.2091799999999991E-08, -1.86E-12, -4.53E-12
DataValue, -0.065, 0.1, 0.5, 9.62278E-08, -9.6260999999999991E-08, 1.41E-12, 2.6000000000000002E-12
DataValue, -0.05, 0.1, 0.5, 1.004792E-07, -1.0031779999999999E-07, 2.34E-12, -2.0200000000000003E-12
DataValue, -0.035, 0.1, 0.5, 1.0485779999999999E-07, -1.0470279999999998E-07, 2.4000000000000004E-13, 2.51E-12
DataValue, -0.02, 0.1, 0.5, 1.0888479999999999E-07, -1.0870399999999999E-07, 1.1000000000000002E-12, -1.26E-12
DataValue, -0.005, 0.1, 0.5, 1.1415659999999999E-07, -1.1365859999999999E-07, -1.2800000000000002E-12, -6.8E-13
DataValue, 0.01, 0.1, 0.5, 1.1806E-07, -1.177E-07, -4.2000000000000003E-13, -1.1100000000000001E-12
