
SetupTitle, ExfoliatedMoS2_TGIdVg
PrimitiveTest, I/V Sweep
TestParameter, Context.MainFrame, B1500A
TestParameter, Channel.UnitType, SMU, SMU, SMU, SMU
TestParameter, Channel.Unit, SMU4:HR, SMU1:HR, SMU2:HR, SMU3:HR
TestParameter, Channel.IName, ID, IS, ITG, Ibg
TestParameter, Channel.VName, VD, VS, VTG, Vbg
TestParameter, Channel.Mode, V, COMMON, V, V
TestParameter, Channel.Func, VAR2, CONST, VAR1, CONST
TestParameter, Channel.Index, 
TestParameter, Channel.Time, 
TestParameter, Measurement.Port.Unit, SMU4:HR, SMU1:HR, SMU2:HR, SMU3:HR
TestParameter, Measurement.Port.SeriesResistor, NONE, NONE, NONE, NONE
TestParameter, Measurement.Port.Filter, ON, ON, ON, ON
TestParameter, Measurement.Port.OutputVoltageComparison, 0, 0, 0, 0
TestParameter, Measurement.Primary.Locus, Double
TestParameter, Measurement.Primary.Scale, LINEAR
TestParameter, Measurement.Primary.Start, -2
TestParameter, Measurement.Primary.Stop, 1
TestParameter, Measurement.Primary.Step, 0.015000000000000001
TestParameter, Measurement.Primary.Compliance, 0.005
TestParameter, Measurement.Primary.PowerCompliance, 0
TestParameter, Measurement.Aborting.Condition, CONTINUE AT ANY
TestParameter, Measurement.PostOutput.Value, START
TestParameter, Measurement.PostOutput.Retention, OFF
TestParameter, Measurement.Secondary.Start, 0.1
TestParameter, Measurement.Secondary.Count, 4
TestParameter, Measurement.Secondary.Step, 0.3
TestParameter, Measurement.Secondary.Compliance, 0.005
TestParameter, Measurement.Secondary.PowerCompliance, 0
TestParameter, Measurement.Bias.Source, 0.1, 0, -2, 0.5
TestParameter, Measurement.Bias.Compliance, 0.005, 0.1, 0.005, 0.1
TestParameter, Measurement.Monitor.Unit, SMU4:HR, SMU1:HR, SMU2:HR, SMU3:HR
TestParameter, Measurement.Monitor.Adc, HR ADC, HR ADC, HR ADC, HR ADC
TestParameter, Measurement.Monitor.Measurement, Compliance Side, Compliance Side, Compliance Side, Compliance Side
TestParameter, Measurement.Monitor.RangingMode, LIMITED, LIMITED, LIMITED, LIMITED
TestParameter, Measurement.Monitor.RangeBoundary, 1nA, 1nA, 1nA, 1nA
TestParameter, Measurement.Monitor.RangeRating, BY FULL RANGE, BY FULL RANGE, BY FULL RANGE, BY FULL RANGE
TestParameter, Measurement.Monitor.RangeRatingCoeff, 50, 50, 50, 50
TestParameter, Measurement.Timing.Hold, 0
TestParameter, Measurement.Timing.Delay, 0
TestParameter, Measurement.Adc.HighSpeed.Mode, AUTO
TestParameter, Measurement.Adc.HighSpeed.Coeff, 1
TestParameter, Measurement.Adc.HighResolution.AutoZero, OFF
TestParameter, Measurement.Adc.HighResolution.Mode, AUTO
TestParameter, Measurement.Adc.HighResolution.Coeff, 6
TestParameter, Measurement.WaitTime.Source.Coeff, 1
TestParameter, Measurement.WaitTime.Source.Offset, 0
TestParameter, Measurement.WaitTime.Monitor.Coeff, 1
TestParameter, Measurement.WaitTime.Monitor.Offset, 0
TestParameter, Output.Graph.Enabled, true
TestParameter, Output.Graph.AutoScaling, false
TestParameter, Output.Graph.XAxis.Data, VTG
TestParameter, Output.Graph.XAxis.Scale, Linear
TestParameter, Output.Graph.XAxis.Left, -1
TestParameter, Output.Graph.XAxis.Right, 1
TestParameter, Output.Graph.XAxis.RunTimeAutoScale, false
TestParameter, Output.Graph.YAxis.Data, ID, ITG
TestParameter, Output.Graph.YAxis.Scale, Linear, Linear
TestParameter, Output.Graph.YAxis.Bottom, -0.1, -0.001
TestParameter, Output.Graph.YAxis.Top, 0.1, 0.001
TestParameter, Output.Graph.YAxis.Group, , 
TestParameter, Output.Graph.YAxis.RunTimeAutoScale, true, false
TestParameter, Output.List.Data, VTG, ID, VD, Vbg, Ibg, ITG, IS
TestParameter, AutoAnalysis.Interpolation, false
TestParameter, AutoAnalysis.Line1.Enabled, false
TestParameter, AutoAnalysis.Line1.Type, 1
TestParameter, AutoAnalysis.Line1.Fix, True
TestParameter, AutoAnalysis.Line1.YAxis, 0
TestParameter, AutoAnalysis.Line1.Point1.Type, 0
TestParameter, AutoAnalysis.Line1.Point1.XY.X, 
TestParameter, AutoAnalysis.Line1.Point1.XY.Y, 
TestParameter, AutoAnalysis.Line1.Point1.Data.Var, 
TestParameter, AutoAnalysis.Line1.Point1.Data.Condition, 
TestParameter, AutoAnalysis.Line1.Point1.Data.Start, false
TestParameter, AutoAnalysis.Line1.Point1.Data.StartVar, 
TestParameter, AutoAnalysis.Line1.Point1.Data.StartCondition, 
TestParameter, AutoAnalysis.Line1.Point2.Type, 0
TestParameter, AutoAnalysis.Line1.Point2.XY.X, 
TestParameter, AutoAnalysis.Line1.Point2.XY.Y, 
TestParameter, AutoAnalysis.Line1.Point2.Data.Var, 
TestParameter, AutoAnalysis.Line1.Point2.Data.Condition, 
TestParameter, AutoAnalysis.Line1.Point2.Data.Start, false
TestParameter, AutoAnalysis.Line1.Point2.Data.StartVar, 
TestParameter, AutoAnalysis.Line1.Point2.Data.StartCondition, 
TestParameter, AutoAnalysis.Line1.GradientExpr, 0
TestParameter, AutoAnalysis.Line2.Enabled, false
TestParameter, AutoAnalysis.Line2.Type, 1
TestParameter, AutoAnalysis.Line2.Fix, True
TestParameter, AutoAnalysis.Line2.YAxis, 0
TestParameter, AutoAnalysis.Line2.Point1.Type, 0
TestParameter, AutoAnalysis.Line2.Point1.XY.X, 
TestParameter, AutoAnalysis.Line2.Point1.XY.Y, 
TestParameter, AutoAnalysis.Line2.Point1.Data.Var, 
TestParameter, AutoAnalysis.Line2.Point1.Data.Condition, 
TestParameter, AutoAnalysis.Line2.Point1.Data.Start, false
TestParameter, AutoAnalysis.Line2.Point1.Data.StartVar, 
TestParameter, AutoAnalysis.Line2.Point1.Data.StartCondition, 
TestParameter, AutoAnalysis.Line2.Point2.Type, 0
TestParameter, AutoAnalysis.Line2.Point2.XY.X, 
TestParameter, AutoAnalysis.Line2.Point2.XY.Y, 
TestParameter, AutoAnalysis.Line2.Point2.Data.Var, 
TestParameter, AutoAnalysis.Line2.Point2.Data.Condition, 
TestParameter, AutoAnalysis.Line2.Point2.Data.Start, false
TestParameter, AutoAnalysis.Line2.Point2.Data.StartVar, 
TestParameter, AutoAnalysis.Line2.Point2.Data.StartCondition, 
TestParameter, AutoAnalysis.Line2.GradientExpr, 0
TestParameter, AutoAnalysis.Marker.Enabled, false
TestParameter, AutoAnalysis.Marker.Data.Var, 
TestParameter, AutoAnalysis.Marker.Data.Condition, 
TestParameter, AutoAnalysis.Marker.Data.Start, false
TestParameter, AutoAnalysis.Marker.Data.StartVar, 
TestParameter, AutoAnalysis.Marker.Data.StartCondition, 
MetaData, TestRecord.EntryPoint, true
MetaData, TestRecord.RecordTime, 10/06/2025 15:32:03
MetaData, TestRecord.TestTarget, E43-H17
MetaData, TestRecord.IterationIndex, 6
MetaData, TestRecord.Preservation, true
MetaData, TestRecord.Flag, 
MetaData, TestRecord.Remarks, 
MetaData, TestRecord.LinkKey, bea89b95-7560-4ae1-b3f2-25d2da174d50
Dimension1, 402, 402, 402, 402, 402, 402, 402
Dimension2, 4, 4, 4, 4, 4, 4, 4
DataName, VTG, VD, Vbg, ID, IS, ITG, Ibg
DataValue, -2, 0.1, 0.5, -5.2E-13, -2.9000000000000003E-13, 2.1000000000000001E-13, -6.5000000000000006E-13
DataValue, -1.985, 0.1, 0.5, 1.2800000000000002E-12, -1.4700000000000002E-12, 4.0000000000000006E-14, 1.5400000000000001E-12
DataValue, -1.9700000000000002, 0.1, 0.5, -7.9000000000000007E-13, -1.5200000000000002E-12, 1.3E-13, 1.3300000000000002E-12
DataValue, -1.955, 0.1, 0.5, 3.3600000000000002E-12, -3.7000000000000004E-13, -1.4E-13, -5.4E-13
DataValue, -1.9400000000000002, 0.1, 0.5, 6.1E-13, -2.67E-12, 5E-14, 1.51E-12
DataValue, -1.925, 0.1, 0.5, 4.2000000000000003E-13, 1.26E-12, -1.5000000000000002E-13, -2.2000000000000002E-13
DataValue, -1.9100000000000001, 0.1, 0.5, 2.19E-12, -1.02E-12, -1.0000000000000002E-14, 5.8000000000000005E-13
DataValue, -1.895, 0.1, 0.5, -1.23E-12, -1.79E-12, 1E-13, 1.0600000000000001E-12
DataValue, -1.8800000000000001, 0.1, 0.5, 3.13E-12, -3.5E-13, -1.3E-13, -6.0000000000000007E-13
DataValue, -1.865, 0.1, 0.5, 1.37E-12, -3.1400000000000004E-12, 1.0000000000000002E-14, 1.9400000000000002E-12
DataValue, -1.85, 0.1, 0.5, 5.4E-13, 6.9000000000000009E-13, 1.0000000000000002E-14, 3.9000000000000005E-13
DataValue, -1.8350000000000002, 0.1, 0.5, 2.64E-12, -1.17E-12, -1E-13, 8E-13
DataValue, -1.82, 0.1, 0.5, -1.18E-12, -2.06E-12, 5E-14, 1.23E-12
DataValue, -1.8050000000000002, 0.1, 0.5, 2.54E-12, 6.0000000000000009E-14, 9.0000000000000008E-14, -8.300000000000001E-13
DataValue, -1.79, 0.1, 0.5, 2.36E-12, -3.6400000000000006E-12, 3.0000000000000005E-14, 1.4900000000000001E-12
DataValue, -1.7750000000000001, 0.1, 0.5, 7.2000000000000006E-13, -5E-13, 1.6000000000000003E-13, 1.3900000000000001E-12
DataValue, -1.76, 0.1, 0.5, 3.4400000000000003E-12, -1.26E-12, 1.0000000000000002E-14, 6.6E-13
DataValue, -1.745, 0.1, 0.5, -6.9000000000000009E-13, -2.4800000000000003E-12, 7E-14, 1.04E-12
DataValue, -1.73, 0.1, 0.5, 2.72E-12, -5E-13, 2.0000000000000003E-14, -1.2500000000000001E-12
DataValue, -1.715, 0.1, 0.5, 2.9400000000000004E-12, -4.46E-12, -1.7E-13, 1.2400000000000002E-12
DataValue, -1.7000000000000002, 0.1, 0.5, 1.3400000000000002E-12, -1.5700000000000002E-12, 1.0000000000000002E-14, 1.5700000000000002E-12
DataValue, -1.685, 0.1, 0.5, 4.18E-12, -1.86E-12, -3.0000000000000005E-14, 9.0000000000000008E-14
DataValue, -1.6700000000000002, 0.1, 0.5, 5.7E-13, -3.4500000000000004E-12, -4.0000000000000006E-14, 1.7500000000000002E-12
DataValue, -1.655, 0.1, 0.5, 2.85E-12, -1.08E-12, -5E-14, -2.3300000000000004E-12
DataValue, -1.6400000000000001, 0.1, 0.5, 3.61E-12, -5.1200000000000008E-12, 2.5E-13, 8.8000000000000009E-13
DataValue, -1.625, 0.1, 0.5, 2.29E-12, -3.25E-12, 8.0000000000000013E-14, 8.1000000000000008E-13
DataValue, -1.61, 0.1, 0.5, 5.7800000000000008E-12, -2.75E-12, -1.2000000000000002E-13, 1.0000000000000002E-14
DataValue, -1.595, 0.1, 0.5, 2.0700000000000003E-12, -4.57E-12, 3.0000000000000005E-14, 1.32E-12
DataValue, -1.58, 0.1, 0.5, 3.8E-12, -2.2000000000000003E-12, 6.0000000000000009E-14, -1.65E-12
DataValue, -1.5650000000000002, 0.1, 0.5, 5.5600000000000005E-12, -6.8200000000000004E-12, 4.0000000000000006E-14, 9.000000000000001E-13
DataValue, -1.55, 0.1, 0.5, 3.8400000000000006E-12, -5.2500000000000004E-12, -1.4E-13, 1.32E-12
DataValue, -1.5350000000000001, 0.1, 0.5, 7.49E-12, -4.92E-12, -1.1000000000000001E-13, 5.2E-13
DataValue, -1.52, 0.1, 0.5, 4.4000000000000006E-12, -6.65E-12, 1E-13, 1.7500000000000002E-12
DataValue, -1.5050000000000001, 0.1, 0.5, 5.9E-12, -4.47E-12, -3.0000000000000005E-14, -1.8700000000000003E-12
DataValue, -1.49, 0.1, 0.5, 7.670000000000001E-12, -8.8800000000000009E-12, 7E-14, 4.4000000000000004E-13
DataValue, -1.475, 0.1, 0.5, 6.5700000000000005E-12, -8.4000000000000014E-12, 9.0000000000000008E-14, 1.5300000000000001E-12
DataValue, -1.46, 0.1, 0.5, 1.0610000000000001E-11, -7.770000000000001E-12, 8.0000000000000013E-14, -5.5000000000000008E-13
DataValue, -1.445, 0.1, 0.5, 7.9600000000000008E-12, -1.0510000000000001E-11, 3.0000000000000005E-14, 1.41E-12
DataValue, -1.4300000000000002, 0.1, 0.5, 9.44E-12, -8.43E-12, -3.0000000000000005E-14, -1.6600000000000002E-12
DataValue, -1.415, 0.1, 0.5, 1.1950000000000001E-11, -1.2680000000000002E-11, -1.1000000000000001E-13, 2.7E-13
DataValue, -1.4000000000000001, 0.1, 0.5, 1.049E-11, -1.2450000000000001E-11, 1.2000000000000002E-13, 6.8E-13
DataValue, -1.385, 0.1, 0.5, 1.531E-11, -1.2850000000000001E-11, 2.0000000000000003E-14, -2.8E-13
DataValue, -1.37, 0.1, 0.5, 1.3470000000000001E-11, -1.608E-11, -1.3E-13, 1.45E-12
DataValue, -1.355, 0.1, 0.5, 1.508E-11, -1.3800000000000002E-11, 3.0000000000000005E-14, -1.7600000000000002E-12
DataValue, -1.34, 0.1, 0.5, 1.8400000000000002E-11, -1.819E-11, -9.0000000000000008E-14, 1.9000000000000002E-13
DataValue, -1.325, 0.1, 0.5, 1.843E-11, -2.078E-11, 6.0000000000000009E-14, 1.14E-12
DataValue, -1.31, 0.1, 0.5, 2.436E-11, -2.132E-11, 2.0000000000000003E-14, 0
DataValue, -1.2950000000000002, 0.1, 0.5, 2.325E-11, -2.5010000000000003E-11, 1.4E-13, 1.23E-12
DataValue, -1.28, 0.1, 0.5, 2.5860000000000002E-11, -2.4940000000000003E-11, 2.0000000000000003E-14, -5.3000000000000006E-13
DataValue, -1.2650000000000001, 0.1, 0.5, 3.078E-11, -3.011E-11, 1.0000000000000002E-14, -6.9000000000000009E-13
DataValue, -1.25, 0.1, 0.5, 3.069E-11, -3.3090000000000005E-11, 3.0000000000000005E-14, 1.07E-12
DataValue, -1.235, 0.1, 0.5, 3.868E-11, -3.5960000000000004E-11, 1.2000000000000002E-13, -1.3400000000000002E-12
DataValue, -1.22, 0.1, 0.5, 4.1430000000000006E-11, -4.3820000000000004E-11, -1.0000000000000002E-14, 1.3500000000000001E-12
DataValue, -1.205, 0.1, 0.5, 4.5320000000000005E-11, -4.469E-11, 1.6000000000000003E-13, -1.3E-13
DataValue, -1.19, 0.1, 0.5, 5.3010000000000006E-11, -5.153E-11, 1.2000000000000002E-13, 4.6000000000000006E-13
DataValue, -1.175, 0.1, 0.5, 5.5950000000000005E-11, -5.79E-11, 6.0000000000000009E-14, 6.9000000000000009E-13
DataValue, -1.1600000000000001, 0.1, 0.5, 6.5710000000000011E-11, -6.375E-11, -1.4E-13, -1.9200000000000003E-12
DataValue, -1.145, 0.1, 0.5, 7.238E-11, -7.3440000000000007E-11, 2.0000000000000003E-14, 1.6300000000000001E-12
DataValue, -1.1300000000000001, 0.1, 0.5, 7.915E-11, -7.855E-11, -8.0000000000000013E-14, -4.0000000000000006E-14
DataValue, -1.115, 0.1, 0.5, 9.121E-11, -8.9350000000000007E-11, -4.0000000000000006E-14, 2.3000000000000003E-13
DataValue, -1.1, 0.1, 0.5, 9.7170000000000012E-11, -1.0085E-10, -2.0000000000000003E-14, 4.1E-13
DataValue, -1.085, 0.1, 0.5, 1.1287000000000001E-10, -1.1090000000000001E-10, -2.0000000000000003E-14, -1.3400000000000002E-12
DataValue, -1.07, 0.1, 0.5, 1.2620000000000001E-10, -1.2861E-10, -7E-14, 1.4E-12
DataValue, -1.0550000000000002, 0.1, 0.5, 1.4135E-10, -1.4072E-10, 1E-13, 2.8E-13
DataValue, -1.04, 0.1, 0.5, 1.6076000000000002E-10, -1.6010000000000002E-10, -5E-14, 4.9E-13
DataValue, -1.0250000000000001, 0.1, 0.5, 1.8116000000000002E-10, -1.8383000000000003E-10, 5E-14, 6.6E-13
DataValue, -1.01, 0.1, 0.5, 2.0909000000000002E-10, -2.085E-10, -1.1000000000000001E-13, -1.83E-12
DataValue, -0.995, 0.1, 0.5, 2.3543000000000003E-10, -2.3901000000000004E-10, 1.8000000000000002E-13, 9.9E-13
DataValue, -0.98000000000000009, 0.1, 0.5, 2.633E-10, -2.6347E-10, 9.0000000000000008E-14, 1.3800000000000002E-12
DataValue, -0.96500000000000008, 0.1, 0.5, 2.9419000000000005E-10, -2.9198E-10, 1.5000000000000002E-13, 2.3000000000000003E-13
DataValue, -0.95000000000000007, 0.1, 0.5, 3.2959000000000005E-10, -3.2773E-10, -3.0000000000000005E-14, 1.2500000000000001E-12
DataValue, -0.935, 0.1, 0.5, 3.6683E-10, -3.6594000000000003E-10, 1.4E-13, -1.86E-12
DataValue, -0.92, 0.1, 0.5, 4.0844000000000004E-10, -4.1149000000000004E-10, 0, 6.2000000000000008E-13
DataValue, -0.905, 0.1, 0.5, 4.7221000000000007E-10, -4.7619E-10, 3.0000000000000005E-14, 8.5000000000000011E-13
DataValue, -0.89, 0.1, 0.5, 5.3031E-10, -5.2619E-10, -1.4E-13, -1.3E-13
DataValue, -0.875, 0.1, 0.5, 5.8952E-10, -5.9145000000000006E-10, 5E-14, 1.14E-12
DataValue, -0.86, 0.1, 0.5, 6.6401000000000007E-10, -6.6309E-10, 2.2000000000000002E-13, -1.5400000000000001E-12
DataValue, -0.84500000000000008, 0.1, 0.5, 7.5022E-10, -7.5406000000000008E-10, 6.0000000000000009E-14, 3.6000000000000003E-13
DataValue, -0.83000000000000007, 0.1, 0.5, 8.3168000000000007E-10, -8.2746000000000006E-10, -1.0000000000000002E-14, 1.55E-12
DataValue, -0.81500000000000006, 0.1, 0.5, 9.4511E-10, -9.4161E-10, -2.4000000000000004E-13, -2.6E-13
DataValue, -0.8, 0.1, 0.5, 1.04144E-09, -1.0410400000000002E-09, 1.0000000000000002E-14, 1.26E-12
DataValue, -0.785, 0.1, 0.5, 1.1543E-09, -1.1517E-09, 2.0000000000000003E-14, 1.3300000000000002E-12
DataValue, -0.77, 0.1, 0.5, 1.2707E-09, -1.2719E-09, 3.0000000000000005E-14, -2.19E-12
DataValue, -0.755, 0.1, 0.5, 1.4233E-09, -1.4346E-09, -4.0000000000000006E-14, 8.300000000000001E-13
DataValue, -0.74, 0.1, 0.5, 1.5911E-09, -1.602E-09, -1.6000000000000003E-13, 1.22E-12
DataValue, -0.72500000000000009, 0.1, 0.5, 1.7852E-09, -1.7934E-09, 5E-14, -2.0000000000000003E-14
DataValue, -0.71000000000000008, 0.1, 0.5, 2.0131E-09, -2.0087E-09, -7E-14, 3.6000000000000003E-13
DataValue, -0.69500000000000006, 0.1, 0.5, 2.2169E-09, -2.2222E-09, -3.0000000000000005E-14, -5.8000000000000005E-13
DataValue, -0.68, 0.1, 0.5, 2.491E-09, -2.4729E-09, -4.0000000000000006E-14, 7.6000000000000009E-13
DataValue, -0.665, 0.1, 0.5, 2.7681E-09, -2.7538E-09, 1.0000000000000002E-14, -2.03E-12
DataValue, -0.65, 0.1, 0.5, 3.0226E-09, -3.0224E-09, -3.0000000000000005E-14, 1.5400000000000001E-12
DataValue, -0.635, 0.1, 0.5, 3.3419E-09, -3.3287E-09, 4.0000000000000006E-14, 1.12E-12
DataValue, -0.62, 0.1, 0.5, 3.6882E-09, -3.6588E-09, 1.1000000000000001E-13, -2.7E-13
DataValue, -0.605, 0.1, 0.5, 3.9927E-09, -4.003E-09, 8.0000000000000013E-14, 7.7000000000000005E-13
DataValue, -0.59000000000000008, 0.1, 0.5, 4.4083E-09, -4.3876E-09, 4.0000000000000006E-14, -3.0000000000000003E-13
DataValue, -0.57500000000000007, 0.1, 0.5, 4.8126E-09, -4.8247E-09, -4.0000000000000006E-14, 9.3E-13
DataValue, -0.56, 0.1, 0.5, 5.2568E-09, -5.2642E-09, -7E-14, -1.96E-12
DataValue, -0.545, 0.1, 0.5, 5.7426E-09, -5.71E-09, 1.3E-13, 1.1100000000000001E-12
DataValue, -0.53, 0.1, 0.5, 6.1834E-09, -6.1646E-09, 4.0000000000000006E-14, 9.4E-13
DataValue, -0.515, 0.1, 0.5, 6.7574E-09, -6.7619E-09, 1E-13, -1.4E-13
DataValue, -0.5, 0.1, 0.5, 7.3452E-09, -7.3561E-09, 6.0000000000000009E-14, 9.2000000000000012E-13
DataValue, -0.48500000000000004, 0.1, 0.5, 7.7982E-09, -7.7869E-09, 6.0000000000000009E-14, -2.2000000000000002E-13
DataValue, -0.47000000000000003, 0.1, 0.5, 8.4439E-09, -8.438E-09, 4.0000000000000006E-14, 6.3E-13
DataValue, -0.455, 0.1, 0.5, 9.0778E-09, -9.0299E-09, 1.0000000000000002E-14, -2.24E-12
DataValue, -0.44, 0.1, 0.5, 9.9351E-09, -9.9408E-09, 1E-13, 1.4800000000000002E-12
DataValue, -0.42500000000000004, 0.1, 0.5, 1.06073E-08, -1.0561E-08, 1.1000000000000001E-13, 2.6E-13
DataValue, -0.41000000000000003, 0.1, 0.5, 1.12016E-08, -1.11804E-08, 6.0000000000000009E-14, 4.1E-13
DataValue, -0.395, 0.1, 0.5, 1.2003399999999999E-08, -1.2048799999999998E-08, -3.0000000000000005E-14, 8.5000000000000011E-13
DataValue, -0.38, 0.1, 0.5, 1.2814399999999998E-08, -1.28094E-08, -1.1000000000000001E-13, 1.1600000000000001E-12
DataValue, -0.365, 0.1, 0.5, 1.3621799999999999E-08, -1.3567799999999999E-08, -7E-14, 1.7E-13
DataValue, -0.35000000000000003, 0.1, 0.5, 1.4475999999999998E-08, -1.4522999999999999E-08, 1.2000000000000002E-13, -2.08E-12
DataValue, -0.335, 0.1, 0.5, 1.52444E-08, -1.52132E-08, 5E-14, 9.9E-13
DataValue, -0.32, 0.1, 0.5, 1.59662E-08, -1.5873E-08, 1E-13, 6.6E-13
DataValue, -0.305, 0.1, 0.5, 1.6848199999999997E-08, -1.6919599999999997E-08, 2E-13, 7.4000000000000008E-13
DataValue, -0.29000000000000004, 0.1, 0.5, 1.77618E-08, -1.7696399999999997E-08, -8.0000000000000013E-14, -4.7E-13
DataValue, -0.275, 0.1, 0.5, 1.8602999999999998E-08, -1.85808E-08, 8.0000000000000013E-14, -6.9000000000000009E-13
DataValue, -0.26, 0.1, 0.5, 1.9637999999999997E-08, -1.96364E-08, 2.0000000000000003E-14, 9.3E-13
DataValue, -0.24500000000000002, 0.1, 0.5, 2.02188E-08, -2.0184599999999997E-08, 5E-14, 1.79E-12
DataValue, -0.23, 0.1, 0.5, 2.0994999999999997E-08, -2.1202999999999998E-08, -9.0000000000000008E-14, -3.3E-13
DataValue, -0.215, 0.1, 0.5, 2.2092999999999998E-08, -2.2067E-08, -2.0000000000000003E-14, -1.9700000000000003E-12
DataValue, -0.2, 0.1, 0.5, 2.3315599999999997E-08, -2.2839999999999998E-08, -8.0000000000000013E-14, 1.2400000000000002E-12
DataValue, -0.185, 0.1, 0.5, 2.3601799999999998E-08, -2.3706599999999997E-08, 5E-14, 1.23E-12
DataValue, -0.17, 0.1, 0.5, 2.45226E-08, -2.4433599999999997E-08, -1.9000000000000002E-13, 2.5E-13
DataValue, -0.155, 0.1, 0.5, 2.5494799999999997E-08, -2.57388E-08, -6.0000000000000009E-14, -7.5E-13
DataValue, -0.14, 0.1, 0.5, 2.60002E-08, -2.5765399999999998E-08, -6.0000000000000009E-14, -4.2000000000000003E-13
DataValue, -0.125, 0.1, 0.5, 2.6790799999999997E-08, -2.6617399999999998E-08, 1.3E-13, 1.4200000000000002E-12
DataValue, -0.11, 0.1, 0.5, 2.7647799999999996E-08, -2.7442599999999998E-08, 4.0000000000000006E-14, 9.6000000000000015E-13
DataValue, -0.095, 0.1, 0.5, 2.77682E-08, -2.7813199999999997E-08, 3.0000000000000005E-14, -2.7E-13
DataValue, -0.08, 0.1, 0.5, 2.8277399999999997E-08, -2.82374E-08, -8.0000000000000013E-14, -2.0700000000000003E-12
DataValue, -0.065, 0.1, 0.5, 2.9049799999999998E-08, -2.9094399999999997E-08, -1.0000000000000002E-14, 1.1500000000000002E-12
