
SetupTitle, ExfoliatedMoS2_TGIdVg
PrimitiveTest, I/V Sweep
TestParameter, Context.MainFrame, B1500A
TestParameter, Channel.UnitType, SMU, SMU, SMU, SMU
TestParameter, Channel.Unit, SMU4:HR, SMU1:HR, SMU2:HR, SMU3:HR
TestParameter, Channel.IName, ID, IS, ITG, Ibg
TestParameter, Channel.VName, VD, VS, VTG, Vbg
TestParameter, Channel.Mode, V, COMMON, V, V
TestParameter, Channel.Func, VAR2, CONST, VAR1, CONST
TestParameter, Channel.Index, 
TestParameter, Channel.Time, 
TestParameter, Measurement.Port.Unit, SMU4:HR, SMU1:HR, SMU2:HR, SMU3:HR
TestParameter, Measurement.Port.SeriesResistor, NONE, NONE, NONE, NONE
TestParameter, Measurement.Port.Filter, ON, ON, ON, ON
TestParameter, Measurement.Port.OutputVoltageComparison, 0, 0, 0, 0
TestParameter, Measurement.Primary.Locus, Double
TestParameter, Measurement.Primary.Scale, LINEAR
TestParameter, Measurement.Primary.Start, -2
TestParameter, Measurement.Primary.Stop, 1
TestParameter, Measurement.Primary.Step, 0.015000000000000001
TestParameter, Measurement.Primary.Compliance, 0.005
TestParameter, Measurement.Primary.PowerCompliance, 0
TestParameter, Measurement.Aborting.Condition, CONTINUE AT ANY
TestParameter, Measurement.PostOutput.Value, START
TestParameter, Measurement.PostOutput.Retention, OFF
TestParameter, Measurement.Secondary.Start, 0.1
TestParameter, Measurement.Secondary.Count, 4
TestParameter, Measurement.Secondary.Step, 0.3
TestParameter, Measurement.Secondary.Compliance, 0.005
TestParameter, Measurement.Secondary.PowerCompliance, 0
TestParameter, Measurement.Bias.Source, 0.1, 0, -2, 0.5
TestParameter, Measurement.Bias.Compliance, 0.005, 0.1, 0.005, 0.1
TestParameter, Measurement.Monitor.Unit, SMU4:HR, SMU1:HR, SMU2:HR, SMU3:HR
TestParameter, Measurement.Monitor.Adc, HR ADC, HR ADC, HR ADC, HR ADC
TestParameter, Measurement.Monitor.Measurement, Compliance Side, Compliance Side, Compliance Side, Compliance Side
TestParameter, Measurement.Monitor.RangingMode, LIMITED, LIMITED, LIMITED, LIMITED
TestParameter, Measurement.Monitor.RangeBoundary, 1nA, 1nA, 1nA, 1nA
TestParameter, Measurement.Monitor.RangeRating, BY FULL RANGE, BY FULL RANGE, BY FULL RANGE, BY FULL RANGE
TestParameter, Measurement.Monitor.RangeRatingCoeff, 50, 50, 50, 50
TestParameter, Measurement.Timing.Hold, 0
TestParameter, Measurement.Timing.Delay, 0
TestParameter, Measurement.Adc.HighSpeed.Mode, AUTO
TestParameter, Measurement.Adc.HighSpeed.Coeff, 1
TestParameter, Measurement.Adc.HighResolution.AutoZero, OFF
TestParameter, Measurement.Adc.HighResolution.Mode, AUTO
TestParameter, Measurement.Adc.HighResolution.Coeff, 6
TestParameter, Measurement.WaitTime.Source.Coeff, 1
TestParameter, Measurement.WaitTime.Source.Offset, 0
TestParameter, Measurement.WaitTime.Monitor.Coeff, 1
TestParameter, Measurement.WaitTime.Monitor.Offset, 0
TestParameter, Output.Graph.Enabled, true
TestParameter, Output.Graph.AutoScaling, false
TestParameter, Output.Graph.XAxis.Data, VTG
TestParameter, Output.Graph.XAxis.Scale, Linear
TestParameter, Output.Graph.XAxis.Left, -1
TestParameter, Output.Graph.XAxis.Right, 1
TestParameter, Output.Graph.XAxis.RunTimeAutoScale, false
TestParameter, Output.Graph.YAxis.Data, ID, ITG
TestParameter, Output.Graph.YAxis.Scale, Linear, Linear
TestParameter, Output.Graph.YAxis.Bottom, -0.1, -0.001
TestParameter, Output.Graph.YAxis.Top, 0.1, 0.001
TestParameter, Output.Graph.YAxis.Group, , 
TestParameter, Output.Graph.YAxis.RunTimeAutoScale, true, false
TestParameter, Output.List.Data, VTG, ID, VD, Vbg, Ibg, ITG, IS
TestParameter, AutoAnalysis.Interpolation, false
TestParameter, AutoAnalysis.Line1.Enabled, false
TestParameter, AutoAnalysis.Line1.Type, 1
TestParameter, AutoAnalysis.Line1.Fix, True
TestParameter, AutoAnalysis.Line1.YAxis, 0
TestParameter, AutoAnalysis.Line1.Point1.Type, 0
TestParameter, AutoAnalysis.Line1.Point1.XY.X, 
TestParameter, AutoAnalysis.Line1.Point1.XY.Y, 
TestParameter, AutoAnalysis.Line1.Point1.Data.Var, 
TestParameter, AutoAnalysis.Line1.Point1.Data.Condition, 
TestParameter, AutoAnalysis.Line1.Point1.Data.Start, false
TestParameter, AutoAnalysis.Line1.Point1.Data.StartVar, 
TestParameter, AutoAnalysis.Line1.Point1.Data.StartCondition, 
TestParameter, AutoAnalysis.Line1.Point2.Type, 0
TestParameter, AutoAnalysis.Line1.Point2.XY.X, 
TestParameter, AutoAnalysis.Line1.Point2.XY.Y, 
TestParameter, AutoAnalysis.Line1.Point2.Data.Var, 
TestParameter, AutoAnalysis.Line1.Point2.Data.Condition, 
TestParameter, AutoAnalysis.Line1.Point2.Data.Start, false
TestParameter, AutoAnalysis.Line1.Point2.Data.StartVar, 
TestParameter, AutoAnalysis.Line1.Point2.Data.StartCondition, 
TestParameter, AutoAnalysis.Line1.GradientExpr, 0
TestParameter, AutoAnalysis.Line2.Enabled, false
TestParameter, AutoAnalysis.Line2.Type, 1
TestParameter, AutoAnalysis.Line2.Fix, True
TestParameter, AutoAnalysis.Line2.YAxis, 0
TestParameter, AutoAnalysis.Line2.Point1.Type, 0
TestParameter, AutoAnalysis.Line2.Point1.XY.X, 
TestParameter, AutoAnalysis.Line2.Point1.XY.Y, 
TestParameter, AutoAnalysis.Line2.Point1.Data.Var, 
TestParameter, AutoAnalysis.Line2.Point1.Data.Condition, 
TestParameter, AutoAnalysis.Line2.Point1.Data.Start, false
TestParameter, AutoAnalysis.Line2.Point1.Data.StartVar, 
TestParameter, AutoAnalysis.Line2.Point1.Data.StartCondition, 
TestParameter, AutoAnalysis.Line2.Point2.Type, 0
TestParameter, AutoAnalysis.Line2.Point2.XY.X, 
TestParameter, AutoAnalysis.Line2.Point2.XY.Y, 
TestParameter, AutoAnalysis.Line2.Point2.Data.Var, 
TestParameter, AutoAnalysis.Line2.Point2.Data.Condition, 
TestParameter, AutoAnalysis.Line2.Point2.Data.Start, false
TestParameter, AutoAnalysis.Line2.Point2.Data.StartVar, 
TestParameter, AutoAnalysis.Line2.Point2.Data.StartCondition, 
TestParameter, AutoAnalysis.Line2.GradientExpr, 0
TestParameter, AutoAnalysis.Marker.Enabled, false
TestParameter, AutoAnalysis.Marker.Data.Var, 
TestParameter, AutoAnalysis.Marker.Data.Condition, 
TestParameter, AutoAnalysis.Marker.Data.Start, false
TestParameter, AutoAnalysis.Marker.Data.StartVar, 
TestParameter, AutoAnalysis.Marker.Data.StartCondition, 
MetaData, TestRecord.EntryPoint, true
MetaData, TestRecord.RecordTime, 10/06/2025 14:35:38
MetaData, TestRecord.TestTarget, E44-T1
MetaData, TestRecord.IterationIndex, 10
MetaData, TestRecord.Preservation, true
MetaData, TestRecord.Flag, 
MetaData, TestRecord.Remarks, 
MetaData, TestRecord.LinkKey, c1d89ca7-a9a1-4b5e-ae01-6957789af89f
Dimension1, 402, 402, 402, 402, 402, 402, 402
Dimension2, 4, 4, 4, 4, 4, 4, 4
DataName, VTG, VD, Vbg, ID, IS, ITG, Ibg
DataValue, -2, 0.1, 0.5, 2.2260000000000002E-11, 3.4610000000000004E-11, -6.189E-11, 2.8E-12
DataValue, -1.985, 0.1, 0.5, 2.4300000000000003E-11, 3.689E-11, -6.32E-11, 1.5E-12
DataValue, -1.9700000000000002, 0.1, 0.5, 2.1550000000000002E-11, 3.2070000000000005E-11, -5.5630000000000006E-11, 2.28E-12
DataValue, -1.955, 0.1, 0.5, 2.1910000000000002E-11, 3.799E-11, -5.794E-11, -2.6E-13
DataValue, -1.9400000000000002, 0.1, 0.5, 2.1990000000000003E-11, 3.296E-11, -5.5890000000000007E-11, 7.8000000000000011E-13
DataValue, -1.925, 0.1, 0.5, 2.0820000000000002E-11, 3.2100000000000004E-11, -5.4100000000000006E-11, 2.2700000000000002E-12
DataValue, -1.9100000000000001, 0.1, 0.5, 1.9200000000000002E-11, 3.282E-11, -4.9760000000000004E-11, 1.3800000000000002E-12
DataValue, -1.895, 0.1, 0.5, 1.744E-11, 3.106E-11, -5.0300000000000003E-11, 8.6000000000000007E-13
DataValue, -1.8800000000000001, 0.1, 0.5, 1.51E-11, 3.113E-11, -4.399E-11, 3.9000000000000005E-13
DataValue, -1.865, 0.1, 0.5, 1.5740000000000002E-11, 3.045E-11, -4.8410000000000004E-11, 1.5E-12
DataValue, -1.85, 0.1, 0.5, 1.612E-11, 2.7450000000000003E-11, -4.3100000000000005E-11, 1.7200000000000001E-12
DataValue, -1.8350000000000002, 0.1, 0.5, 1.83E-11, 2.609E-11, -4.362E-11, -1.0500000000000002E-12
DataValue, -1.82, 0.1, 0.5, 1.724E-11, 2.3190000000000003E-11, -4.076E-11, 2.39E-12
DataValue, -1.8050000000000002, 0.1, 0.5, 1.528E-11, 2.6120000000000003E-11, -4.1760000000000006E-11, 1.8000000000000002E-12
DataValue, -1.79, 0.1, 0.5, 1.454E-11, 2.183E-11, -3.652E-11, 1E-12
DataValue, -1.7750000000000001, 0.1, 0.5, 1.2780000000000002E-11, 2.1480000000000003E-11, -3.529E-11, 5.8000000000000005E-13
DataValue, -1.76, 0.1, 0.5, 1.3350000000000001E-11, 2.2100000000000003E-11, -3.3820000000000006E-11, -1.88E-12
DataValue, -1.745, 0.1, 0.5, 1.4080000000000001E-11, 1.835E-11, -3.324E-11, 7.100000000000001E-13
DataValue, -1.73, 0.1, 0.5, 1.1760000000000002E-11, 2.001E-11, -3.3E-11, 1.18E-12
DataValue, -1.715, 0.1, 0.5, 1.401E-11, 1.8950000000000003E-11, -3.3310000000000006E-11, 2.2700000000000002E-12
DataValue, -1.7000000000000002, 0.1, 0.5, 1.2930000000000001E-11, 1.7910000000000003E-11, -3.271E-11, 1.17E-12
DataValue, -1.685, 0.1, 0.5, 1.2480000000000002E-11, 2.0260000000000003E-11, -2.954E-11, -2.29E-12
DataValue, -1.6700000000000002, 0.1, 0.5, 1.3270000000000001E-11, 1.54E-11, -2.9370000000000004E-11, 9.0000000000000008E-14
DataValue, -1.655, 0.1, 0.5, 1.126E-11, 1.648E-11, -2.726E-11, 2.1000000000000003E-12
DataValue, -1.6400000000000001, 0.1, 0.5, 1.343E-11, 1.6910000000000003E-11, -2.969E-11, 7E-13
DataValue, -1.625, 0.1, 0.5, 9.97E-12, 1.5470000000000003E-11, -2.7500000000000002E-11, 1.6E-12
DataValue, -1.61, 0.1, 0.5, 9.75E-12, 1.754E-11, -2.6720000000000002E-11, -1.13E-12
DataValue, -1.595, 0.1, 0.5, 1.1820000000000001E-11, 1.351E-11, -2.5320000000000003E-11, 9.4E-13
DataValue, -1.58, 0.1, 0.5, 8.25E-12, 1.458E-11, -2.347E-11, 2.5E-13
DataValue, -1.5650000000000002, 0.1, 0.5, 1.0300000000000001E-11, 1.466E-11, -2.5060000000000002E-11, 1.2800000000000002E-12
DataValue, -1.55, 0.1, 0.5, 9.48E-12, 1.2750000000000001E-11, -2.2420000000000002E-11, 1.0600000000000001E-12
DataValue, -1.5350000000000001, 0.1, 0.5, 7.7900000000000013E-12, 1.4500000000000002E-11, -2.3120000000000003E-11, -1.3900000000000001E-12
DataValue, -1.52, 0.1, 0.5, 9.57E-12, 1.2550000000000001E-11, -2.223E-11, 5.3000000000000006E-13
DataValue, -1.5050000000000001, 0.1, 0.5, 6.96E-12, 1.292E-11, -2.0330000000000002E-11, 2.2200000000000002E-12
DataValue, -1.49, 0.1, 0.5, 1.14E-11, 1.3140000000000001E-11, -2.2510000000000002E-11, -8.1000000000000008E-13
DataValue, -1.475, 0.1, 0.5, 8.01E-12, 1.076E-11, -2.1040000000000002E-11, 3.2000000000000005E-13
DataValue, -1.46, 0.1, 0.5, 6.8000000000000009E-12, 1.2050000000000001E-11, -1.848E-11, 2E-13
DataValue, -1.445, 0.1, 0.5, 7.0500000000000009E-12, 1.086E-11, -1.837E-11, 1.3400000000000002E-12
DataValue, -1.4300000000000002, 0.1, 0.5, 5.64E-12, 1.0720000000000001E-11, -1.6400000000000003E-11, 3.6000000000000003E-13
DataValue, -1.415, 0.1, 0.5, 7.32E-12, 1.0900000000000001E-11, -1.699E-11, -7.6000000000000009E-13
DataValue, -1.4000000000000001, 0.1, 0.5, 7.65E-12, 7.81E-12, -1.679E-11, 2E-12
DataValue, -1.385, 0.1, 0.5, 6.71E-12, 1.0410000000000001E-11, -1.5760000000000002E-11, -1.2900000000000002E-12
DataValue, -1.37, 0.1, 0.5, 8.22E-12, 9.24E-12, -1.773E-11, 5.6E-13
DataValue, -1.355, 0.1, 0.5, 5.6600000000000005E-12, 8.4900000000000012E-12, -1.4270000000000001E-11, 2.14E-12
DataValue, -1.34, 0.1, 0.5, 7.7900000000000013E-12, 1.007E-11, -1.632E-11, -1.1600000000000001E-12
DataValue, -1.325, 0.1, 0.5, 7.1300000000000005E-12, 5.79E-12, -1.5320000000000002E-11, -2.0000000000000003E-14
DataValue, -1.31, 0.1, 0.5, 6.2E-12, 6.86E-12, -1.362E-11, 1.5600000000000002E-12
DataValue, -1.2950000000000002, 0.1, 0.5, 8.46E-12, 7.22E-12, -1.63E-11, 1.0100000000000001E-12
DataValue, -1.28, 0.1, 0.5, 5.23E-12, 5.1200000000000008E-12, -1.168E-11, -2.9000000000000003E-13
DataValue, -1.2650000000000001, 0.1, 0.5, 7.2400000000000007E-12, 6.7400000000000008E-12, -1.2580000000000002E-11, -1.6700000000000002E-12
DataValue, -1.25, 0.1, 0.5, 6.5200000000000005E-12, 3.67E-12, -1.137E-11, 1.4700000000000002E-12
DataValue, -1.235, 0.1, 0.5, 6.4800000000000007E-12, 4.8600000000000007E-12, -1.107E-11, 1.74E-12
DataValue, -1.22, 0.1, 0.5, 9.26E-12, 4.3900000000000005E-12, -1.3060000000000001E-11, -9.7000000000000011E-13
DataValue, -1.205, 0.1, 0.5, 6.1600000000000004E-12, 2.8900000000000004E-12, -1.028E-11, 1.02E-12
DataValue, -1.19, 0.1, 0.5, 7.26E-12, 4.67E-12, -1.0220000000000001E-11, -2.34E-12
DataValue, -1.175, 0.1, 0.5, 7.9800000000000011E-12, 1.0500000000000002E-12, -1.037E-11, -3.2000000000000005E-13
DataValue, -1.1600000000000001, 0.1, 0.5, 7.16E-12, 1.3400000000000002E-12, -7.74E-12, 1.4200000000000002E-12
DataValue, -1.145, 0.1, 0.5, 9.2800000000000008E-12, 1.03E-12, -9.8100000000000012E-12, 1.9200000000000003E-12
DataValue, -1.1300000000000001, 0.1, 0.5, 7.39E-12, -7.9000000000000007E-13, -7.3E-12, 2.2000000000000002E-13
DataValue, -1.115, 0.1, 0.5, 8.33E-12, 6.1E-13, -7.33E-12, -2.3200000000000002E-12
DataValue, -1.1, 0.1, 0.5, 1.0410000000000001E-11, -3.43E-12, -7.61E-12, 7.3E-13
DataValue, -1.085, 0.1, 0.5, 9.490000000000001E-12, -3.58E-12, -5.3000000000000004E-12, 2.6000000000000002E-12
DataValue, -1.07, 0.1, 0.5, 1.311E-11, -4.41E-12, -8.2900000000000012E-12, -9.4E-13
DataValue, -1.0550000000000002, 0.1, 0.5, 1.2860000000000001E-11, -7.34E-12, -6.1800000000000007E-12, 1.8000000000000002E-12
DataValue, -1.04, 0.1, 0.5, 1.424E-11, -7.26E-12, -5.9E-12, -8.0000000000000013E-14
DataValue, -1.0250000000000001, 0.1, 0.5, 1.624E-11, -1.0900000000000001E-11, -6.2300000000000007E-12, -5.6E-13
DataValue, -1.01, 0.1, 0.5, 1.715E-11, -1.361E-11, -4.2500000000000007E-12, 7E-14
DataValue, -0.995, 0.1, 0.5, 2.2590000000000003E-11, -1.6070000000000002E-11, -5.8600000000000005E-12, 4.4000000000000004E-13
DataValue, -0.98000000000000009, 0.1, 0.5, 2.4570000000000002E-11, -2.1040000000000002E-11, -5.13E-12, 1.1100000000000001E-12
DataValue, -0.96500000000000008, 0.1, 0.5, 2.764E-11, -2.236E-11, -4.88E-12, -1.4300000000000002E-12
DataValue, -0.95000000000000007, 0.1, 0.5, 3.267E-11, -2.777E-11, -5.08E-12, 1.21E-12
DataValue, -0.935, 0.1, 0.5, 3.477E-11, -3.2760000000000005E-11, -2.3500000000000003E-12, 2.3800000000000004E-12
DataValue, -0.92, 0.1, 0.5, 4.311E-11, -3.7530000000000005E-11, -4.22E-12, -2.34E-12
DataValue, -0.905, 0.1, 0.5, 4.956E-11, -4.76E-11, -3.1400000000000004E-12, 6.3E-13
DataValue, -0.89, 0.1, 0.5, 5.5380000000000007E-11, -5.182E-11, -2.9600000000000003E-12, 1.8700000000000003E-12
DataValue, -0.875, 0.1, 0.5, 6.446E-11, -6.032E-11, -4.7600000000000007E-12, 1.2000000000000001E-12
DataValue, -0.86, 0.1, 0.5, 7.233000000000001E-11, -7.11E-11, -1.27E-12, -8.2E-13
DataValue, -0.84500000000000008, 0.1, 0.5, 8.751E-11, -8.321E-11, -3.15E-12, -1.07E-12
DataValue, -0.83000000000000007, 0.1, 0.5, 1.0180000000000001E-10, -9.8440000000000011E-11, -3.0300000000000002E-12, 6.3E-13
DataValue, -0.81500000000000006, 0.1, 0.5, 1.1863E-10, -1.1641000000000002E-10, -2.5500000000000002E-12, -2.2000000000000002E-13
DataValue, -0.8, 0.1, 0.5, 1.4247E-10, -1.4056E-10, -3.71E-12, 5.1E-13
DataValue, -0.785, 0.1, 0.5, 1.6359E-10, -1.6302000000000002E-10, -7.2000000000000006E-13, 2.2500000000000003E-12
DataValue, -0.77, 0.1, 0.5, 1.9306E-10, -1.9099E-10, -1.9400000000000002E-12, -2.2000000000000003E-12
DataValue, -0.755, 0.1, 0.5, 2.2640000000000001E-10, -2.2335E-10, -2.0500000000000004E-12, -4.5000000000000005E-13
DataValue, -0.74, 0.1, 0.5, 2.6773E-10, -2.6894E-10, -7.2000000000000006E-13, 1.22E-12
DataValue, -0.72500000000000009, 0.1, 0.5, 3.2637000000000003E-10, -3.2337000000000004E-10, -3.61E-12, 8.6000000000000007E-13
DataValue, -0.71000000000000008, 0.1, 0.5, 3.8681000000000003E-10, -3.8422000000000004E-10, -6.9000000000000009E-13, -2E-13
DataValue, -0.69500000000000006, 0.1, 0.5, 4.5742000000000006E-10, -4.5233000000000003E-10, -1.7500000000000002E-12, -2.39E-12
DataValue, -0.68, 0.1, 0.5, 5.3015000000000008E-10, -5.2302E-10, -2.06E-12, 1E-12
DataValue, -0.665, 0.1, 0.5, 6.2466000000000009E-10, -6.2456000000000006E-10, -4E-13, 6.5000000000000006E-13
DataValue, -0.65, 0.1, 0.5, 7.5991E-10, -7.4438000000000007E-10, -2.6300000000000003E-12, -1.07E-12
DataValue, -0.635, 0.1, 0.5, 8.9431000000000009E-10, -8.8839000000000007E-10, -3.4E-13, 1.2800000000000002E-12
DataValue, -0.62, 0.1, 0.5, 1.05841E-09, -1.0566800000000001E-09, -4.6000000000000006E-13, -1.93E-12
DataValue, -0.605, 0.1, 0.5, 1.1878E-09, -1.1984E-09, -2.7800000000000003E-12, 1.46E-12
DataValue, -0.59000000000000008, 0.1, 0.5, 1.4049E-09, -1.4009E-09, -2.7E-13, -5.9E-13
DataValue, -0.57500000000000007, 0.1, 0.5, 1.7413E-09, -1.7155E-09, -4.9E-13, -2.28E-12
DataValue, -0.56, 0.1, 0.5, 2.0567E-09, -2.0652E-09, -8.5000000000000011E-13, 1.6700000000000002E-12
DataValue, -0.545, 0.1, 0.5, 2.4774E-09, -2.4632E-09, -3.4E-13, -1.3400000000000002E-12
DataValue, -0.53, 0.1, 0.5, 2.9076999999999998E-09, -2.8806E-09, -1.32E-12, -1.3E-13
DataValue, -0.515, 0.1, 0.5, 3.4165E-09, -3.3753E-09, 7.5E-13, 1.7600000000000002E-12
DataValue, -0.5, 0.1, 0.5, 4.077E-09, -4.0429E-09, -1.98E-12, -2.0000000000000003E-14
DataValue, -0.48500000000000004, 0.1, 0.5, 4.651E-09, -4.6535E-09, 5.8000000000000005E-13, -3.9000000000000005E-13
DataValue, -0.47000000000000003, 0.1, 0.5, 5.4552E-09, -5.4144E-09, -5E-14, -1.3800000000000002E-12
DataValue, -0.455, 0.1, 0.5, 6.3235E-09, -6.3277E-09, -6.1E-13, -5E-14
DataValue, -0.44, 0.1, 0.5, 7.52E-09, -7.4475E-09, 0, -1.7E-13
DataValue, -0.42500000000000004, 0.1, 0.5, 8.6864E-09, -8.6528E-09, -1.04E-12, 1.13E-12
DataValue, -0.41000000000000003, 0.1, 0.5, 1.00735E-08, -1.00906E-08, 6.8E-13, 7.8000000000000011E-13
DataValue, -0.395, 0.1, 0.5, 1.1575E-08, -1.1592599999999998E-08, -8.9E-13, -3.5E-13
DataValue, -0.38, 0.1, 0.5, 1.3415399999999998E-08, -1.3401999999999998E-08, -3.7000000000000004E-13, -1.83E-12
DataValue, -0.365, 0.1, 0.5, 1.54714E-08, -1.54762E-08, 6.400000000000001E-13, 2.4500000000000003E-12
DataValue, -0.35000000000000003, 0.1, 0.5, 1.77334E-08, -1.7665E-08, 6.8E-13, 2E-13
DataValue, -0.335, 0.1, 0.5, 2.0338399999999998E-08, -2.0029799999999997E-08, -4.9E-13, 5.7E-13
DataValue, -0.32, 0.1, 0.5, 2.3156199999999997E-08, -2.31538E-08, -1.4200000000000002E-12, 1.13E-12
DataValue, -0.305, 0.1, 0.5, 2.6418399999999997E-08, -2.6599199999999996E-08, 6.0000000000000009E-14, -2.69E-12
DataValue, -0.29000000000000004, 0.1, 0.5, 2.9924599999999997E-08, -2.98162E-08, 1.5400000000000001E-12, 1.3500000000000001E-12
DataValue, -0.275, 0.1, 0.5, 3.3461199999999995E-08, -3.3497399999999994E-08, 1.5000000000000002E-13, 1.1500000000000002E-12
DataValue, -0.26, 0.1, 0.5, 3.71686E-08, -3.7251399999999996E-08, -1.0600000000000001E-12, -8.0000000000000013E-14
DataValue, -0.24500000000000002, 0.1, 0.5, 4.18136E-08, -4.1618799999999993E-08, 2.0000000000000003E-14, -1.8900000000000002E-12
DataValue, -0.23, 0.1, 0.5, 4.6410599999999996E-08, -4.6584999999999997E-08, 9.3E-13, 1.6700000000000002E-12
DataValue, -0.215, 0.1, 0.5, 5.1460799999999996E-08, -5.1383399999999993E-08, 1.5000000000000002E-13, 5.9E-13
DataValue, -0.2, 0.1, 0.5, 5.6829399999999994E-08, -5.62232E-08, -4.1E-13, 8.4000000000000006E-13
DataValue, -0.185, 0.1, 0.5, 6.2425999999999993E-08, -6.23916E-08, -1.4900000000000001E-12, 2.6E-13
DataValue, -0.17, 0.1, 0.5, 6.8291E-08, -6.8430799999999988E-08, 3.1000000000000004E-13, -1.6700000000000002E-12
DataValue, -0.155, 0.1, 0.5, 7.5297199999999987E-08, -7.5385599999999989E-08, 1.5800000000000001E-12, 1.6200000000000002E-12
DataValue, -0.14, 0.1, 0.5, 8.1858399999999986E-08, -8.13798E-08, 6.0000000000000009E-14, 8.8000000000000009E-13
DataValue, -0.125, 0.1, 0.5, 8.8352E-08, -8.859199999999999E-08, -1.5E-12, 2E-13
DataValue, -0.11, 0.1, 0.5, 9.48354E-08, -9.51122E-08, 3.0000000000000005E-14, -1.85E-12
DataValue, -0.095, 0.1, 0.5, 1.0201319999999999E-07, -1.0201739999999999E-07, 1.4E-12, 1.46E-12
DataValue, -0.08, 0.1, 0.5, 1.0877339999999999E-07, -1.0839739999999998E-07, 5E-13, -5E-13
DataValue, -0.065, 0.1, 0.5, 1.1592E-07, -1.1612E-07, -2.0000000000000003E-14, -1.5E-12
DataValue, -0.05, 0.1, 0.5, 1.2358E-07, -1.238E-07, -4.3000000000000004E-13, 1.14E-12
DataValue, -0.035, 0.1, 0.5, 1.3012E-07, -1.3028E-07, 3.0000000000000003E-13, 1.36E-12
DataValue, -0.02, 0.1, 0.5, 1.375E-07, -1.376E-07, 9.3E-13, 1.32E-12
